(1548439780.705399) can0 18DAF107#2160000000000000
(1548439780.705691) can0 18DAF107#2200000000000000
(1548439780.706405) can0 18DAF107#2300000000000000
(1548439780.706919) can0 18DAF107#2400000000000000
(1548439780.707479) can0 18DAF107#2505000000000000
(1548439780.708271) can0 18DAF107#2600000000000000
(1548439780.708722) can0 18DAF107#2700000000000000
(1548439780.709021) can0 18DAF107#2800005555555555
(1548439780.764342) can0 18DA07F1#0322266055555500
(1548439780.765916) can0 18DAF107#1039622660000000
(1548439780.815685) can0 18DA07F1#30FF015555555500
(1548439780.817693) can0 18DAF107#2100073000000000
(1548439780.817933) can0 18DAF107#2200000000000000
(1548439780.818219) can0 18DAF107#2300000000000000
(1548439780.818488) can0 18DAF107#2400000000000000
(1548439780.818994) can0 18DAF107#2500000000000000
(1548439780.819288) can0 18DAF107#260000000000000E
(1548439780.820186) can0 18DAF107#27A0000000000000
(1548439780.820478) can0 18DAF107#2800005555555555
(1548439795.868953) can0 18DA01F1#0322202A55555500
(1548439795.872462) can0 18DAF101#10F662202A380F3F
(1548439795.920571) can0 18DA01F1#30F6015555555500
(1548439795.923363) can0 18DAF101#21FFFFFFFFFFFFE7
(1548439795.923764) can0 18DAF101#22FFFFFFFFF2B33F
(1548439795.924069) can0 18DAF101#23FFFFFFFFFFFFE0
(1548439795.924412) can0 18DAF101#2400000000000000
(1548439795.924931) can0 18DAF101#2500000000000001
(1548439795.925236) can0 18DAF101#260D09F100000000
(1548439795.925524) can0 18DAF101#2781000100036220
(1548439795.925778) can0 18DAF101#2858001B1AB8001D
(1548439795.926066) can0 18DAF101#29120F1AB4003C22
(1548439795.926370) can0 18DAF101#2A08FBD14C0EFBCE
(1548439795.926745) can0 18DAF101#2B24B6243A4F924F
(1548439795.927057) can0 18DAF101#2C4D00004D540000
(1548439795.927331) can0 18DAF101#2D4D5401200405AA
(1548439795.929850) can0 18DAF101#2E00A00078FF1C03
(1548439795.930118) can0 18DAF101#2F020000130F36EC
(1548439795.930462) can0 18DAF101#2038B83201F4000A
(1548439795.930729) can0 18DAF101#21001D1919030300
(1548439795.931450) can0 18DAF101#22000000FFFFFFFF
(1548439795.932275) can0 18DAF101#231AD311021F2C38
(1548439795.932597) can0 18DAF101#24367F007F007F00
(1548439795.932919) can0 18DAF101#2500000100010027
(1548439795.933379) can0 18DAF101#2610000001F40000
(1548439795.933686) can0 18DAF101#27FF40F000FF0007
(1548439795.933980) can0 18DAF101#28EF000F1FA400BF
(1548439795.934484) can0 18DAF101#2900BF009F009D1A
(1548439795.935011) can0 18DAF101#2AB71AB70022001B
(1548439795.935301) can0 18DAF101#2B4FA04F954F5A4F
(1548439795.935570) can0 18DAF101#2C6424CC24C72454
(1548439795.935880) can0 18DAF101#2D245F00BF009D01
(1548439795.936219) can0 18DAF101#2E90008200000000
(1548439795.936513) can0 18DAF101#2F01000000000000
(1548439795.936807) can0 18DAF101#2000000000000000
(1548439795.937127) can0 18DAF101#2100000000000000
(1548439795.937436) can0 18DAF101#2200000000000000
(1548439795.938221) can0 18DAF101#2300005555555555
(1548439795.982165) can0 18DA07F1#0322261055555500
(1548439795.983697) can0 18DAF107#1039622610000800
(1548439796.032977) can0 18DA07F1#30FF015555555500
(1548439796.034576) can0 18DAF107#2160000000000000
(1548439796.035071) can0 18DAF107#2200000000000000
(1548439796.035369) can0 18DAF107#2300000000000000
(1548439796.035664) can0 18DAF107#2400000000000000
(1548439796.035941) can0 18DAF107#2505000000000000
(1548439796.036227) can0 18DAF107#2600000000000000
(1548439796.036494) can0 18DAF107#2700000000000000
(1548439796.036764) can0 18DAF107#2800005555555555
(1548439796.095906) can0 18DA07F1#0322266055555500
(1548439796.097425) can0 18DAF107#1039622660000000
(1548439796.147272) can0 18DA07F1#30FF015555555500
(1548439796.148938) can0 18DAF107#2100073000000000
(1548439796.149486) can0 18DAF107#2200000000000000
(1548439796.149766) can0 18DAF107#2300000000000000
(1548439796.150009) can0 18DAF107#2400000000000000
(1548439796.150314) can0 18DAF107#2500000000000000
(1548439796.150609) can0 18DAF107#260000000000000E
(1548439796.152717) can0 18DAF107#27A0000000000000
(1548439796.153005) can0 18DAF107#2800005555555555
(1548439811.200398) can0 18DA01F1#0322202A55555500
(1548439811.203692) can0 18DAF101#10F662202A380F3F
(1548439811.251935) can0 18DA01F1#30F6015555555500
(1548439811.253498) can0 18DAF101#21FFFFFFFFFFFFE7
(1548439811.253956) can0 18DAF101#22FFFFFFFFF2B33F
(1548439811.254277) can0 18DAF101#23FFFFFFFFFFFFE0
(1548439811.254554) can0 18DAF101#24000000012E0304
(1548439811.254854) can0 18DAF101#25B0000000000001
(1548439811.255278) can0 18DAF101#260D0A00FB7F0000
(1548439811.255574) can0 18DAF101#2781010100036220
(1548439811.256120) can0 18DAF101#285800841AB5008C
(1548439811.256423) can0 18DAF101#29120F1AAC019022
(1548439811.256661) can0 18DAF101#2A08FBD14C0BFBCE
(1548439811.256930) can0 18DAF101#2B24B524394F8D4F
(1548439811.257250) can0 18DAF101#2C4100004D540000
(1548439811.257535) can0 18DAF101#2D4D5401200305AA
(1548439811.257840) can0 18DAF101#2E00A0006EFF1C03
(1548439811.258134) can0 18DAF101#2F020000130F36D8
(1548439811.258457) can0 18DAF101#2038E03201F400B5
(1548439811.259229) can0 18DAF101#21008C1919030300
(1548439811.259543) can0 18DAF101#22000000FFFFFFFF
(1548439811.260259) can0 18DAF101#231ACF11021F2C38
(1548439811.260577) can0 18DAF101#24187F007F007F00
(1548439811.260867) can0 18DAF101#2500000100010027
(1548439811.261173) can0 18DAF101#2610000001F40000
(1548439811.261473) can0 18DAF101#27FF40F000FF0007
(1548439811.261799) can0 18DAF101#28F0004D1FA400BF
(1548439811.262067) can0 18DAF101#2900BF009F009C1A
(1548439811.262800) can0 18DAF101#2AB41AB400880079
(1548439811.263224) can0 18DAF101#2B4F974F8D4F584F
(1548439811.263800) can0 18DAF101#2C5B24CB24C62453
(1548439811.264145) can0 18DAF101#2D245E00BF009C01
(1548439811.264595) can0 18DAF101#2E90008200000000
(1548439811.265117) can0 18DAF101#2F01000000000000
(1548439811.265461) can0 18DAF101#2000000000000000
(1548439811.266912) can0 18DAF101#2100000000000000
(1548439811.267229) can0 18DAF101#2200000000000000
(1548439811.267500) can0 18DAF101#2300005555555555
(1548439811.314832) can0 18DA07F1#0322261055555500
(1548439811.316392) can0 18DAF107#1039622610000800
(1548439811.366312) can0 18DA07F1#30FF015555555500
(1548439811.367866) can0 18DAF107#2160000000000000
(1548439811.368159) can0 18DAF107#2200000000000000
(1548439811.368455) can0 18DAF107#2300030000000000
(1548439811.369358) can0 18DAF107#2400000000000000
(1548439811.369916) can0 18DAF107#2505000000000000
(1548439811.370671) can0 18DAF107#2600000000000000
(1548439811.371498) can0 18DAF107#2700000000000000
(1548439811.372026) can0 18DAF107#2800005555555555
(1548439811.429262) can0 18DA07F1#0322266055555500
(1548439811.430830) can0 18DAF107#1039622660000000
(1548439811.480849) can0 18DA07F1#30FF015555555500
(1548439811.484233) can0 18DAF107#2100073000000000
(1548439811.484558) can0 18DAF107#2200000000000000
(1548439811.484850) can0 18DAF107#2300000000000000
(1548439811.485112) can0 18DAF107#2400000000000000
(1548439811.485392) can0 18DAF107#2500000000000000
(1548439811.485720) can0 18DAF107#260000000000000E
(1548439811.486210) can0 18DAF107#27A0000000000000
(1548439811.486458) can0 18DAF107#2800005555555555
(1548439826.534220) can0 18DA01F1#0322202A55555500
(1548439826.535808) can0 18DAF101#10F662202A380F3F
(1548439826.585720) can0 18DA01F1#30F6015555555500
(1548439826.588312) can0 18DAF101#21FFFFFFFFFFFFE7
(1548439826.588576) can0 18DAF101#22FFFFFFFFF2B33F
(1548439826.588903) can0 18DAF101#23FFFFFFFFFFFFE0
(1548439826.589385) can0 18DAF101#2400000000010000
(1548439826.589739) can0 18DAF101#2504000000000001
(1548439826.590648) can0 18DAF101#260D0A1002420000
(1548439826.590943) can0 18DAF101#2781010100036220
(1548439826.591237) can0 18DAF101#2858002B1AB50026
(1548439826.592017) can0 18DAF101#29120F1AB4007822
(1548439826.592354) can0 18DAF101#2A05FBD14C05FBCE
(1548439826.592599) can0 18DAF101#2B24B124354F8A4F
(1548439826.592895) can0 18DAF101#2C4400004D540000
(1548439826.593190) can0 18DAF101#2D4D5401200405AA
(1548439826.594852) can0 18DAF101#2E00A00078FF1C03
(1548439826.595370) can0 18DAF101#2F020000130F36D8
(1548439826.595638) can0 18DAF101#2038CC3201F4004A
(1548439826.595918) can0 18DAF101#2100261919030300
(1548439826.596264) can0 18DAF101#22000000FFFFFFFF
(1548439826.596572) can0 18DAF101#231AD311021F2C38
(1548439826.597074) can0 18DAF101#240E7F007F007F00
(1548439826.597356) can0 18DAF101#2500000100010027
(1548439826.597709) can0 18DAF101#2610000001F40000
(1548439826.597959) can0 18DAF101#27FF40F000FF0007
(1548439826.598265) can0 18DAF101#28EF001A1FA400BF
(1548439826.598760) can0 18DAF101#2900BF009F009D1A
(1548439826.599063) can0 18DAF101#2AB41AB500370028
(1548439826.599354) can0 18DAF101#2B4F984F8C4F554F
(1548439826.599648) can0 18DAF101#2C5B24C724C2244F
(1548439826.600410) can0 18DAF101#2D245B00BF009D01
(1548439826.600955) can0 18DAF101#2E90008200000000
(1548439826.601261) can0 18DAF101#2F01000000000000
(1548439826.601797) can0 18DAF101#2000000000000000
(1548439826.602105) can0 18DAF101#2100000000000000
(1548439826.602620) can0 18DAF101#2200000000000000
(1548439826.602901) can0 18DAF101#2300005555555555
(1548439826.648546) can0 18DA07F1#0322261055555500
(1548439826.652215) can0 18DAF107#1039622610000800
(1548439826.699852) can0 18DA07F1#30FF015555555500
(1548439826.701427) can0 18DAF107#2160000000000000
(1548439826.701952) can0 18DAF107#2200000000000000
(1548439826.702269) can0 18DAF107#2300000000000000
(1548439826.702526) can0 18DAF107#2400000000000000
(1548439826.702847) can0 18DAF107#2505000000000000
(1548439826.703115) can0 18DAF107#2600000000000000
(1548439826.704029) can0 18DAF107#2700000000000000
(1548439826.704360) can0 18DAF107#2800005555555555
(1548439826.762540) can0 18DA07F1#0322266055555500
(1548439826.767129) can0 18DAF107#1039622660000000
(1548439826.814063) can0 18DA07F1#30FF015555555500
(1548439826.815610) can0 18DAF107#2100073000000000
(1548439826.815916) can0 18DAF107#2200000000000000
(1548439826.816192) can0 18DAF107#2300000000000000
(1548439826.816459) can0 18DAF107#2400000000000000
(1548439826.816788) can0 18DAF107#2500000000000000
(1548439826.817264) can0 18DAF107#260000000000000E
(1548439826.817567) can0 18DAF107#27A0000000040000
(1548439826.817835) can0 18DAF107#2800005555555555
(1548439841.867173) can0 18DA01F1#0322202A55555500
(1548439841.869487) can0 18DAF101#10F662202A380F3F
(1548439841.918752) can0 18DA01F1#30F6015555555500
(1548439841.920563) can0 18DAF101#21FFFFFFFFFFFFE7
(1548439841.921278) can0 18DAF101#22FFFFFFFFF2B33F
(1548439841.921601) can0 18DAF101#23FFFFFFFFFFFFE0
(1548439841.921933) can0 18DAF101#2400000001A40506
(1548439841.922207) can0 18DAF101#25BC000000000001
(1548439841.922521) can0 18DAF101#260D0A1F161F0000
(1548439841.923247) can0 18DAF101#2781000100036220
(1548439841.923509) can0 18DAF101#2858029C1AA902B8
(1548439841.923804) can0 18DAF101#29120F1AA6078022
(1548439841.924117) can0 18DAF101#2A05FBD14C08FBCE
(1548439841.924411) can0 18DAF101#2B24AE24324F644F
(1548439841.925114) can0 18DAF101#2C2000004DA90000
(1548439841.925616) can0 18DAF101#2D34C101200305AA
(1548439841.926113) can0 18DAF101#2E00A0006EFF1C03
(1548439841.926644) can0 18DAF101#2F020000130F36D8
(1548439841.927064) can0 18DAF101#2038B83101F402B6
(1548439841.927591) can0 18DAF101#2102C0191A030300
(1548439841.928354) can0 18DAF101#22000000FFFFFFFF
(1548439841.928915) can0 18DAF101#231ACC11021F2C38
(1548439841.929169) can0 18DAF101#240E7F007F007F00
(1548439841.929463) can0 18DAF101#2500000100010027
(1548439841.929759) can0 18DAF101#2610000001F40000
(1548439841.930564) can0 18DAF101#27FF40F000FF0007
(1548439841.932166) can0 18DAF101#28ED01871FA400BF
(1548439841.932712) can0 18DAF101#2900BF009E009C1A
(1548439841.933191) can0 18DAF101#2AA91AAA02960268
(1548439841.933461) can0 18DAF101#2B4F724F6C4F334F
(1548439841.933812) can0 18DAF101#2C3E24C424C0244C
(1548439841.934104) can0 18DAF101#2D245800BF009C01
(1548439841.934476) can0 18DAF101#2E90008200000000
(1548439841.935374) can0 18DAF101#2F01000000000000
(1548439841.935900) can0 18DAF101#2000000000000000
(1548439841.936208) can0 18DAF101#2100000000000000
(1548439841.936502) can0 18DAF101#2200000000000000
(1548439841.936809) can0 18DAF101#2300005555555555
(1548439841.981942) can0 18DA07F1#0322261055555500
(1548439841.983512) can0 18DAF107#1039622610000800
(1548439842.033460) can0 18DA07F1#30FF015555555500
(1548439842.036340) can0 18DAF107#2160000000000000
(1548439842.036620) can0 18DAF107#2200000000000000
(1548439842.036934) can0 18DAF107#2300060000000000
(1548439842.037204) can0 18DAF107#2400000000000000
(1548439842.037531) can0 18DAF107#2505000000000000
(1548439842.037806) can0 18DAF107#2600000000000000
(1548439842.038565) can0 18DAF107#2700000000000000
(1548439842.038807) can0 18DAF107#2800005555555555
(1548439842.096446) can0 18DA07F1#0322266055555500
(1548439842.098220) can0 18DAF107#1039622660000000
(1548439842.148015) can0 18DA07F1#30FF015555555500
(1548439842.149560) can0 18DAF107#2100073000000000
(1548439842.149838) can0 18DAF107#2200000000000000
(1548439842.150159) can0 18DAF107#2300000000000000
(1548439842.150628) can0 18DAF107#2400000000000000
(1548439842.151171) can0 18DAF107#2500000000000000
(1548439842.151734) can0 18DAF107#260000000000000E
(1548439842.152577) can0 18DAF107#27A0000000080000
(1548439842.153087) can0 18DAF107#2800005555555555
(1548439857.201217) can0 18DA01F1#0322202A55555500
(1548439857.202809) can0 18DAF101#10F662202A380F3F
(1548439857.252781) can0 18DA01F1#30F6015555555500
(1548439857.254572) can0 18DAF101#21FFFFFFFFFFFFE7
(1548439857.254871) can0 18DAF101#22FFFFFFFFF2B33F
(1548439857.255187) can0 18DAF101#23FFFFFFFFFFFFE0
(1548439857.255464) can0 18DAF101#2400000006621519
(1548439857.256436) can0 18DAF101#25A4000000000001
(1548439857.256859) can0 18DAF101#260D0A2EF6660000
(1548439857.257436) can0 18DAF101#2781010100036120
(1548439857.257703) can0 18DAF101#2858FD021ABEFD04
(1548439857.258001) can0 18DAF101#29120F1AC8F6F022
(1548439857.258295) can0 18DAF101#2A02FBD14BF3FBCE
(1548439857.258659) can0 18DAF101#2B24A6242A4FA44F
(1548439857.259203) can0 18DAF101#2C6900004D540000
(1548439857.259475) can0 18DAF101#2D34C001200305AA
(1548439857.259771) can0 18DAF101#2E0096006EFF1C03
(1548439857.260055) can0 18DAF101#2F020000130E36CE
(1548439857.260347) can0 18DAF101#2038CC3201F4FCF5
(1548439857.260673) can0 18DAF101#21FD041816030300
(1548439857.261235) can0 18DAF101#22000000FFFFFFFF
(1548439857.261561) can0 18DAF101#231ADE11021F2C38
(1548439857.262270) can0 18DAF101#24187F007F007F00
(1548439857.262633) can0 18DAF101#2500000100010027
(1548439857.262955) can0 18DAF101#2610000001F40000
(1548439857.263237) can0 18DAF101#27FF40F000FF0007
(1548439857.263514) can0 18DAF101#28EDFE411FA400BF
(1548439857.263808) can0 18DAF101#2900BF009E009C1A
(1548439857.264105) can0 18DAF101#2ABE1ABDFD04FD2C
(1548439857.264617) can0 18DAF101#2B4FB54FA74F734F
(1548439857.264903) can0 18DAF101#2C7324BB24B72444
(1548439857.265211) can0 18DAF101#2D245000BF009C01
(1548439857.265530) can0 18DAF101#2E90008200000000
(1548439857.266051) can0 18DAF101#2F01000000000000
(1548439857.266503) can0 18DAF101#2000000000000000
(1548439857.267032) can0 18DAF101#2100000000000000
(1548439857.267555) can0 18DAF101#2200000000000000
(1548439857.267954) can0 18DAF101#2300005555555555
(1548439857.315513) can0 18DA07F1#0322261055555500
(1548439857.317903) can0 18DAF107#1039622610000800
(1548439857.367037) can0 18DA07F1#30FF015555555500
(1548439857.370009) can0 18DAF107#2160000000000000
(1548439857.370288) can0 18DAF107#2200000000000000
(1548439857.370578) can0 18DAF107#2300150000000000
(1548439857.371179) can0 18DAF107#2400000000000000
(1548439857.371472) can0 18DAF107#2505000000000000
(1548439857.371762) can0 18DAF107#2600000000000000
(1548439857.372286) can0 18DAF107#2700000000000000
(1548439857.372811) can0 18DAF107#2800005555555555
(1548439857.430130) can0 18DA07F1#0322266055555500
(1548439857.431673) can0 18DAF107#1039622660000000
(1548439857.481794) can0 18DA07F1#30FF015555555500
(1548439857.483489) can0 18DAF107#2100073000000000
(1548439857.483767) can0 18DAF107#2200000000000000
(1548439857.484062) can0 18DAF107#2300000000000000
(1548439857.484381) can0 18DAF107#2400000000000000
(1548439857.484876) can0 18DAF107#2500000000000000
(1548439857.485173) can0 18DAF107#260000000000000E
(1548439857.485458) can0 18DAF107#27A0000000130000
(1548439857.485748) can0 18DAF107#2800005555555555
(1548439872.535450) can0 18DA01F1#0322202A55555500
(1548439872.537351) can0 18DAF101#10F662202A380F3F
(1548439872.587089) can0 18DA01F1#30F6015555555500
(1548439872.588645) can0 18DAF101#21FFFFFFFFFFFFE7
(1548439872.588956) can0 18DAF101#22FFFFFFFFF2B33F
(1548439872.589279) can0 18DAF101#23FFFFFFFFFFFFE0
(1548439872.589577) can0 18DAF101#240000000DB12E37
(1548439872.589870) can0 18DAF101#2510000000000001
(1548439872.591298) can0 18DAF101#260D0A3E0B600000
(1548439872.591591) can0 18DAF101#2781000100036120
(1548439872.591954) can0 18DAF101#285809471A790950
(1548439872.592379) can0 18DAF101#29120F1A7219DC21
(1548439872.592702) can0 18DAF101#2AFFFBCE4BE1FBCB
(1548439872.593616) can0 18DAF101#2B249424194ED64E
(1548439872.593953) can0 18DAF101#2C8D00004D550000
(1548439872.594220) can0 18DAF101#2D34C101200305AA
(1548439872.594755) can0 18DAF101#2E00960064FF1C03
(1548439872.595036) can0 18DAF101#2F020000130D36EC
(1548439872.595318) can0 18DAF101#2038CC3201F4094D
(1548439872.595610) can0 18DAF101#2109501A1F030300
(1548439872.596166) can0 18DAF101#22000000FFFFFFFF
(1548439872.596588) can0 18DAF101#231A8E11021F2C38
(1548439872.596956) can0 18DAF101#24047F007F007F00
(1548439872.598846) can0 18DAF101#2500000100010027
(1548439872.599587) can0 18DAF101#2610000001F40000
(1548439872.600142) can0 18DAF101#27FF40F000FF0007
(1548439872.600467) can0 18DAF101#28EB05791FA400BF
(1548439872.600753) can0 18DAF101#2900BF009E009C1A
(1548439872.600982) can0 18DAF101#2A781A7B094B08C0
(1548439872.601250) can0 18DAF101#2B4EE44EDF4EA44E
(1548439872.601518) can0 18DAF101#2CB624AA24A72433
(1548439872.601902) can0 18DAF101#2D244000BF009C01
(1548439872.602218) can0 18DAF101#2E90008200000000
(1548439872.602501) can0 18DAF101#2F01000000000000
(1548439872.603527) can0 18DAF101#2000000000000000
(1548439872.603950) can0 18DAF101#2100000000000000
(1548439872.604219) can0 18DAF101#2200000000000000
(1548439872.604495) can0 18DAF101#2300005555555555
(1548439872.650617) can0 18DA07F1#0322261055555500
(1548439872.652225) can0 18DAF107#1039622610000800
(1548439872.702234) can0 18DA07F1#30FF015555555500
(1548439872.703769) can0 18DAF107#2160000000000000
(1548439872.704071) can0 18DAF107#2200000000000000
(1548439872.704340) can0 18DAF107#23002E0000000000
(1548439872.704629) can0 18DAF107#2400000000000000
(1548439872.704955) can0 18DAF107#2505000000000000
(1548439872.705237) can0 18DAF107#2600000000000000
(1548439872.705509) can0 18DAF107#2700000000000000
(1548439872.706044) can0 18DAF107#2800005555555555
(1548439872.765440) can0 18DA07F1#0322266055555500
(1548439872.771022) can0 18DAF107#1039622660000000
(1548439872.816878) can0 18DA07F1#30FF015555555500
(1548439872.818454) can0 18DAF107#2100073000000000
(1548439872.818714) can0 18DAF107#2200000000000000
(1548439872.818996) can0 18DAF107#2300000000000000
(1548439872.819307) can0 18DAF107#2400000000000000
(1548439872.819600) can0 18DAF107#2500000000000000
(1548439872.819864) can0 18DAF107#260000000000000E
(1548439872.820383) can0 18DAF107#27A00000001D0000
(1548439872.820697) can0 18DAF107#2800005555555555
(1548439887.870364) can0 18DA01F1#0322202A55555500
(1548439887.872491) can0 18DAF101#10F662202A380F3F
(1548439887.921829) can0 18DA01F1#30F6015555555500
(1548439887.923353) can0 18DAF101#21FFFFFFFFFFFFE7
(1548439887.924394) can0 18DAF101#22FFFFFFFFF2B33F
(1548439887.924715) can0 18DAF101#23FFFFFFFFFFFFE0
(1548439887.925072) can0 18DAF101#240000000A98232A
(1548439887.925380) can0 18DAF101#2520000000000001
(1548439887.925700) can0 18DAF101#260D0A4DF7F20000
(1548439887.926019) can0 18DAF101#2781010100036120
(1548439887.926301) can0 18DAF101#2858FBB31AB9FBAE
(1548439887.926825) can0 18DAF101#29120F1AB4F36221
(1548439887.927120) can0 18DAF101#2AFCFBCE4BCFFBCB
(1548439887.927622) can0 18DAF101#2B248A240F4F944F
(1548439887.927913) can0 18DAF101#2C4F00004D540000
(1548439887.928465) can0 18DAF101#2D34C001200305AA
(1548439887.929273) can0 18DAF101#2E00960064FF1C03
(1548439887.929784) can0 18DAF101#2F020000140D36E2
(1548439887.930295) can0 18DAF101#2038CC3101F4FB9F
(1548439887.930823) can0 18DAF101#21FBAE1815030300
(1548439887.931354) can0 18DAF101#22000000FFFFFFFF
(1548439887.931724) can0 18DAF101#231AD611021F2C38
(1548439887.932456) can0 18DAF101#24227F007F007F00
(1548439887.932956) can0 18DAF101#2500000100010027
(1548439887.933230) can0 18DAF101#2610000001F40000
(1548439887.933539) can0 18DAF101#27FF40F000FF0007
(1548439887.935141) can0 18DAF101#28EAFD7D1FA400BF
(1548439887.935685) can0 18DAF101#2900BF009E009C1A
(1548439887.936069) can0 18DAF101#2AB81AB8FBB6FBF4
(1548439887.936337) can0 18DAF101#2B4F9D4F9B4F614F
(1548439887.936688) can0 18DAF101#2C6324A0249D2429
(1548439887.937112) can0 18DAF101#2D243600BF009C01
(1548439887.937647) can0 18DAF101#2E90008200000000
(1548439887.937942) can0 18DAF101#2F01000000000000
(1548439887.938472) can0 18DAF101#2000000000000000
(1548439887.938948) can0 18DAF101#2100000000000000
(1548439887.939458) can0 18DAF101#2200000000000000
(1548439887.939740) can0 18DAF101#2300005555555555
(1548439887.984713) can0 18DA07F1#0322261055555500
(1548439887.986246) can0 18DAF107#1039622610000800
(1548439888.036079) can0 18DA07F1#30FF015555555500
(1548439888.037889) can0 18DAF107#2160000000000000
(1548439888.040227) can0 18DAF107#2200000000000000
(1548439888.040525) can0 18DAF107#2300220000000000
(1548439888.040795) can0 18DAF107#2400000000000000
(1548439888.041296) can0 18DAF107#2505000000000000
(1548439888.041596) can0 18DAF107#2600000000000000
(1548439888.041890) can0 18DAF107#2700000000000000
(1548439888.042162) can0 18DAF107#2800005555555555
(1548439888.099183) can0 18DA07F1#0322266055555500
(1548439888.100733) can0 18DAF107#1039622660000000
(1548439888.150539) can0 18DA07F1#30FF015555555500
(1548439888.152388) can0 18DAF107#2100073000000000
(1548439888.152714) can0 18DAF107#2200000000000000
(1548439888.152983) can0 18DAF107#2300000000000000
(1548439888.153468) can0 18DAF107#2400000000000000
(1548439888.153818) can0 18DAF107#2500000000000000
(1548439888.154323) can0 18DAF107#260000000000000E
(1548439888.154841) can0 18DAF107#27A0000000320000
(1548439888.155342) can0 18DAF107#2800005555555555
(1548439903.204023) can0 18DA01F1#0322202A55555500
(1548439903.205613) can0 18DAF101#10F662202A380F3F
(1548439903.255456) can0 18DA01F1#30F6015555555500
(1548439903.257014) can0 18DAF101#21FFFFFFFFFFFFE7
(1548439903.257258) can0 18DAF101#22FFFFFFFFF2B33F
(1548439903.257785) can0 18DAF101#23FFFFFFFFFFFFE0
(1548439903.258061) can0 18DAF101#2400000000000000
(1548439903.258380) can0 18DAF101#2500000000000001
(1548439903.258952) can0 18DAF101#260D0A5C024A0000
(1548439903.259635) can0 18DAF101#2781010100036120
(1548439903.260087) can0 18DAF101#285800261AA90026
(1548439903.260592) can0 18DAF101#29120F1AAC007821
(1548439903.260953) can0 18DAF101#2AFCFBCE4BE1FBCB
(1548439903.261247) can0 18DAF101#2B249124154F6A4F
(1548439903.261540) can0 18DAF101#2C2400004D540000
(1548439903.262295) can0 18DAF101#2D34C001200305AA
(1548439903.262591) can0 18DAF101#2E0096006EFF1C03
(1548439903.262955) can0 18DAF101#2F020000140C36EC
(1548439903.263249) can0 18DAF101#2038D63101F40020
(1548439903.263569) can0 18DAF101#2100261919030300
(1548439903.263952) can0 18DAF101#22000000FFFFFFFF
(1548439903.264279) can0 18DAF101#231AC411021F2C38
(1548439903.264599) can0 18DAF101#24047F007F007F00
(1548439903.265379) can0 18DAF101#2500000100010027
(1548439903.265653) can0 18DAF101#2610000001F40000
(1548439903.265985) can0 18DAF101#27FF40F000FF0007
(1548439903.266223) can0 18DAF101#28EA00171FA400BF
(1548439903.266555) can0 18DAF101#2900BF009E009C1A
(1548439903.266848) can0 18DAF101#2AA81AA9002E0023
(1548439903.267142) can0 18DAF101#2B4F724F694F384F
(1548439903.267409) can0 18DAF101#2C3B24A624A2242F
(1548439903.267703) can0 18DAF101#2D243C00BF009C01
(1548439903.268006) can0 18DAF101#2E90008200000000
(1548439903.268301) can0 18DAF101#2F01000000000000
(1548439903.268625) can0 18DAF101#2000000000000000
(1548439903.269396) can0 18DAF101#2100000000000000
(1548439903.269849) can0 18DAF101#2200000000000000
(1548439903.270323) can0 18DAF101#2300005555555555
(1548439903.318681) can0 18DA07F1#0322261055555500
(1548439903.321071) can0 18DAF107#1039622610000800
(1548439903.370011) can0 18DA07F1#30FF015555555500
(1548439903.373216) can0 18DAF107#2160000000000000
(1548439903.373464) can0 18DAF107#2200000000000000
(1548439903.373789) can0 18DAF107#2300000000000000
(1548439903.374039) can0 18DAF107#2400000000000000
(1548439903.374391) can0 18DAF107#2505000000000000
(1548439903.374629) can0 18DAF107#2600000000000000
(1548439903.375166) can0 18DAF107#2700000000000000
(1548439903.375668) can0 18DAF107#2800005555555555
(1548439903.432722) can0 18DA07F1#0322266055555500
(1548439903.434504) can0 18DAF107#1039622660000000
(1548439903.484149) can0 18DA07F1#30FF015555555500
(1548439903.485673) can0 18DAF107#2100073000000000
(1548439903.486204) can0 18DAF107#2200000000000000
(1548439903.486474) can0 18DAF107#2300000000000000
(1548439903.486792) can0 18DAF107#2400000000000000
(1548439903.487047) can0 18DAF107#2500000000000000
(1548439903.487350) can0 18DAF107#260000000000000E
(1548439903.487648) can0 18DAF107#27A0000000350000
(1548439903.487959) can0 18DAF107#2800005555555555
(1548439918.537609) can0 18DA01F1#0322202A55555500
(1548439918.539209) can0 18DAF101#10F662202A380F3F
(1548439918.589208) can0 18DA01F1#30F6015555555500
(1548439918.591311) can0 18DAF101#21FFFFFFFFFFFFE7
(1548439918.591562) can0 18DAF101#22FFFFFFFFF2B33F
(1548439918.591846) can0 18DAF101#23FFFFFFFFFFFFE0
(1548439918.592185) can0 18DAF101#2400000000000000
(1548439918.592469) can0 18DAF101#2500000000000001
(1548439918.592764) can0 18DAF101#260D0A6C00000000
(1548439918.594261) can0 18DAF101#2781000100036120
(1548439918.594557) can0 18DAF101#285800201AAA0019
(1548439918.594836) can0 18DAF101#29120F1AA6003C21
(1548439918.595555) can0 18DAF101#2AFCFBCE4BE1F9D6
(1548439918.596516) can0 18DAF101#2B249024154F704F
(1548439918.596811) can0 18DAF101#2C2100004D540000
(1548439918.597110) can0 18DAF101#2D34C001200305AA
(1548439918.597931) can0 18DAF101#2E008C0064FF1C03
(1548439918.598253) can0 18DAF101#2F020000140C36E2
(1548439918.598556) can0 18DAF101#2038C23201F40020
(1548439918.598796) can0 18DAF101#2100191919030300
(1548439918.599137) can0 18DAF101#22000000FFFFFFFF
(1548439918.599472) can0 18DAF101#231AC411021F2C38
(1548439918.599767) can0 18DAF101#24367F007F007F00
(1548439918.600030) can0 18DAF101#2500000100010027
(1548439918.601762) can0 18DAF101#2610000001F40000
(1548439918.602215) can0 18DAF101#27FF40F000FF0007
(1548439918.602711) can0 18DAF101#28ED00121FA400BF
(1548439918.603241) can0 18DAF101#2900BF009E009C1A
(1548439918.603553) can0 18DAF101#2AA91AA90022001F
(1548439918.603824) can0 18DAF101#2B4F724F694F354F
(1548439918.604303) can0 18DAF101#2C3D24A624A2242F
(1548439918.604615) can0 18DAF101#2D243C00BF009C01
(1548439918.604910) can0 18DAF101#2E90008200000000
(1548439918.605193) can0 18DAF101#2F01000000000000
(1548439918.605743) can0 18DAF101#2000000000000000
(1548439918.606557) can0 18DAF101#2100000000000000
(1548439918.606834) can0 18DAF101#2200000000000000
(1548439918.607107) can0 18DAF101#2300005555555555
(1548439918.652567) can0 18DA07F1#0322261055555500
(1548439918.654121) can0 18DAF107#1039622610000800
(1548439918.704028) can0 18DA07F1#30FF015555555500
(1548439918.705548) can0 18DAF107#2160000000000000
(1548439918.706125) can0 18DAF107#2200000000000000
(1548439918.706624) can0 18DAF107#2300000000000000
(1548439918.706918) can0 18DAF107#2400000000000000
(1548439918.707213) can0 18DAF107#2505000000000000
(1548439918.707552) can0 18DAF107#2600000000000000
(1548439918.707840) can0 18DAF107#2700000000000000
(1548439918.708078) can0 18DAF107#2800005555555555
(1548439918.766939) can0 18DA07F1#0322266055555500
(1548439918.768473) can0 18DAF107#1039622660000000
(1548439918.818576) can0 18DA07F1#30FF015555555500
(1548439918.820113) can0 18DAF107#2100073000000000
(1548439918.821291) can0 18DAF107#2200000000000000
(1548439918.821586) can0 18DAF107#2300000000000000
(1548439918.821850) can0 18DAF107#2400000000000000
(1548439918.822151) can0 18DAF107#2500000000000000
(1548439918.822655) can0 18DAF107#260000000000000E
(1548439918.823187) can0 18DAF107#27A0000000350000
(1548439918.823467) can0 18DAF107#2800005555555555
(1548439933.871910) can0 18DA01F1#0322202A55555500
(1548439933.873722) can0 18DAF101#10F662202A380F3F
(1548439933.923379) can0 18DA01F1#30F6015555555500
(1548439933.925178) can0 18DAF101#21FFFFFFFFFFFFE7
(1548439933.925442) can0 18DAF101#22FFFFFFFFF2B33F
(1548439933.925776) can0 18DAF101#23FFFFFFFFFFFFE0
(1548439933.926053) can0 18DAF101#2400000001550405
(1548439933.926360) can0 18DAF101#2588000000000001
(1548439933.926629) can0 18DAF101#260D0A7B115D0000
(1548439933.927807) can0 18DAF101#2781000100036120
(1548439933.928109) can0 18DAF101#285801E01AA201EF
(1548439933.928377) can0 18DAF101#29120F1AA2055A21
(1548439933.928670) can0 18DAF101#2AFCFBCE4BE7F9D6
(1548439933.928949) can0 18DAF101#2B249024144F4D4F
(1548439933.929238) can0 18DAF101#2C0C00004D550000
(1548439933.929551) can0 18DAF101#2D34C101200305AA
(1548439933.929844) can0 18DAF101#2E00960064FF1C03
(1548439933.930161) can0 18DAF101#2F020000140C36C4
(1548439933.930416) can0 18DAF101#2038CC3201F401F6
(1548439933.930710) can0 18DAF101#2101EF191A030300
(1548439933.931042) can0 18DAF101#22000000FFFFFFFF
(1548439933.931774) can0 18DAF101#231AC111021F2C38
(1548439933.932235) can0 18DAF101#24187F007F007F00
(1548439933.932749) can0 18DAF101#2500000100010027
(1548439933.933287) can0 18DAF101#2610000001F40000
(1548439933.934025) can0 18DAF101#27FF40F000FF0007
(1548439933.934582) can0 18DAF101#28ED01191FA400BF
(1548439933.935105) can0 18DAF101#2900BF009E009D1A
(1548439933.935610) can0 18DAF101#2AA11AA201D501BD
(1548439933.935919) can0 18DAF101#2B4F5B4F554F1E4F
(1548439933.936183) can0 18DAF101#2C2924A624A2242E
(1548439933.936547) can0 18DAF101#2D243C00BF009D01
(1548439933.938172) can0 18DAF101#2E90008200000000
(1548439933.938918) can0 18DAF101#2F01000000000000
(1548439933.939213) can0 18DAF101#2000000000000000
(1548439933.939612) can0 18DAF101#2100000000000000
(1548439933.939905) can0 18DAF101#2200000000000000
(1548439933.940198) can0 18DAF101#2300005555555555
(1548439933.986432) can0 18DA07F1#0322261055555500
(1548439933.987971) can0 18DAF107#1039622610000800
(1548439934.037942) can0 18DA07F1#30FF015555555500
(1548439934.039517) can0 18DAF107#2160000000000000
(1548439934.039810) can0 18DAF107#2200000000000000
(1548439934.040101) can0 18DAF107#2300050000000000
(1548439934.040370) can0 18DAF107#2400000000000000
(1548439934.040636) can0 18DAF107#2505000000000000
(1548439934.040907) can0 18DAF107#2600000000000000
(1548439934.041228) can0 18DAF107#2700000000000000
(1548439934.043308) can0 18DAF107#2800005555555555
(1548439934.100647) can0 18DA07F1#0322266055555500
(1548439934.102959) can0 18DAF107#1039622660000000
(1548439934.152055) can0 18DA07F1#30FF015555555500
(1548439934.153822) can0 18DAF107#2100073000000000
(1548439934.155495) can0 18DAF107#2200000000000000
(1548439934.155761) can0 18DAF107#2300000000000000
(1548439934.156303) can0 18DAF107#2400000000000000
(1548439934.156633) can0 18DAF107#2500000000000000
(1548439934.157377) can0 18DAF107#260000000000000E
(1548439934.157913) can0 18DAF107#27A0000000350000
(1548439934.158336) can0 18DAF107#2800005555555555
(1548439949.205211) can0 18DA01F1#0322202A55555500
(1548439949.207132) can0 18DAF101#10F662202A380F3F
(1548439949.256657) can0 18DA01F1#30F6015555555500
(1548439949.259756) can0 18DAF101#21FFFFFFFFFFFFE7
(1548439949.260034) can0 18DAF101#22FFFFFFFFF2B33F
(1548439949.260367) can0 18DAF101#23FFFFFFFFFFFFE0
(1548439949.260739) can0 18DAF101#2400000008141B20
(1548439949.261061) can0 18DAF101#25B8000000000001
(1548439949.261368) can0 18DAF101#260D0A8A11490000
(1548439949.261740) can0 18DAF101#2781000100036120
(1548439949.262032) can0 18DAF101#285807EC1A820813
(1548439949.263397) can0 18DAF101#29120F1A8414DC21
(1548439949.263874) can0 18DAF101#2AF9FBCB4BE7F9C4
(1548439949.264364) can0 18DAF101#2B2487240B4EF84E
(1548439949.264972) can0 18DAF101#2CA700004D550000
(1548439949.265268) can0 18DAF101#2D34C101200205AA
(1548439949.265583) can0 18DAF101#2E00960050FF1C03
(1548439949.265886) can0 18DAF101#2F020000140C36CE
(1548439949.266149) can0 18DAF101#2038B83201F407F8
(1548439949.266479) can0 18DAF101#2108131A1E030300
(1548439949.266802) can0 18DAF101#22000000FFFFFFFF
(1548439949.267046) can0 18DAF101#231A9C11021F2C38
(1548439949.267398) can0 18DAF101#24047F007F007F00
(1548439949.268193) can0 18DAF101#2500000100010027
(1548439949.268489) can0 18DAF101#2610000001F40000
(1548439949.268783) can0 18DAF101#27FF40F000FF0007
(1548439949.269079) can0 18DAF101#28EC04AB1FA400BF
(1548439949.269365) can0 18DAF101#2900BF009E009D1A
(1548439949.269699) can0 18DAF101#2A831A8407E0076E
(1548439949.269968) can0 18DAF101#2B4EFE4EFC4EC14E
(1548439949.270236) can0 18DAF101#2CD2249D24992425
(1548439949.270551) can0 18DAF101#2D243300BF009D01
(1548439949.270846) can0 18DAF101#2E90008200000000
(1548439949.271167) can0 18DAF101#2F01000000000000
(1548439949.271487) can0 18DAF101#2000000000000000
(1548439949.271808) can0 18DAF101#2100000000000000
(1548439949.272091) can0 18DAF101#2200000000000000
(1548439949.272364) can0 18DAF101#2300005555555555
(1548439949.319553) can0 18DA07F1#0322261055555500
(1548439949.321107) can0 18DAF107#1039622610000800
(1548439949.371109) can0 18DA07F1#30FF015555555500
(1548439949.372900) can0 18DAF107#2160000000000000
(1548439949.376769) can0 18DAF107#2200000000000000
(1548439949.377004) can0 18DAF107#23001B0000000000
(1548439949.377367) can0 18DAF107#2400000000000000
(1548439949.377669) can0 18DAF107#2505000000000000
(1548439949.378174) can0 18DAF107#2600000000000000
(1548439949.378690) can0 18DAF107#2700000000000000
(1548439949.379141) can0 18DAF107#2800005555555555
(1548439949.434138) can0 18DA07F1#0322266055555500
(1548439949.436281) can0 18DAF107#1039622660000000
(1548439949.485692) can0 18DA07F1#30FF015555555500
(1548439949.487230) can0 18DAF107#2100073000000000
(1548439949.487512) can0 18DAF107#2200000000000000
(1548439949.488009) can0 18DAF107#2300000000000000
(1548439949.488531) can0 18DAF107#2400000000000000
(1548439949.488885) can0 18DAF107#2500000000000000
(1548439949.489122) can0 18DAF107#260000000000000E
(1548439949.489400) can0 18DAF107#27A00000003B0000
(1548439949.489742) can0 18DAF107#2800005555555555
(1548439964.539541) can0 18DA01F1#0322202A55555500
(1548439964.541226) can0 18DAF101#10F662202A380F3F
(1548439964.591069) can0 18DA01F1#30F6015555555500
(1548439964.592647) can0 18DAF101#21FFFFFFFFFFFFE7
(1548439964.592913) can0 18DAF101#22FFFFFFFFF2B33F
(1548439964.593222) can0 18DAF101#23FFFFFFFFFFFFE0
(1548439964.593711) can0 18DAF101#2400000011C93B46
(1548439964.594658) can0 18DAF101#25EC000000000001
(1548439964.595180) can0 18DAF101#260E0A9A095C0000
(1548439964.595487) can0 18DAF101#2781000100036120
(1548439964.597188) can0 18DAF101#285809A01A6A0994
(1548439964.597437) can0 18DAF101#29120F1A5E1E4621
(1548439964.597707) can0 18DAF101#2AF3FBC84BB7F98B
(1548439964.598238) can0 18DAF101#2B246923EE4EAD4E
(1548439964.598532) can0 18DAF101#2C6400004D010000
(1548439964.599495) can0 18DAF101#2D351501200305AA
(1548439964.599872) can0 18DAF101#2E0096006EFF1C03
(1548439964.600224) can0 18DAF101#2F020000140C36C4
(1548439964.600469) can0 18DAF101#2038AE3201F4098D
(1548439964.601019) can0 18DAF101#2109941A20030300
(1548439964.601324) can0 18DAF101#22000000FFFFFFFF
(1548439964.601606) can0 18DAF101#231A8611021F2C38
(1548439964.601910) can0 18DAF101#240E7F007F007F00
(1548439964.602213) can0 18DAF101#2500000100010027
(1548439964.602533) can0 18DAF101#2610000001F40000
(1548439964.602858) can0 18DAF101#27FF40F000FF0007
(1548439964.603127) can0 18DAF101#28EA05C11FA400BF
(1548439964.603450) can0 18DAF101#2900BF009E009D1A
(1548439964.605611) can0 18DAF101#2A691A6C09CB0940
(1548439964.606651) can0 18DAF101#2B4EB54EB04E784E
(1548439964.607144) can0 18DAF101#2C8A247F247D2408
(1548439964.607438) can0 18DAF101#2D241800BF009D01
(1548439964.607814) can0 18DAF101#2E90008200000000
(1548439964.608079) can0 18DAF101#2F01000000000000
(1548439964.608373) can0 18DAF101#2000000000000000
(1548439964.609152) can0 18DAF101#2100000000000000
(1548439964.609456) can0 18DAF101#2200000000000000
(1548439964.609731) can0 18DAF101#2300005555555555
(1548439964.654133) can0 18DA07F1#0322261055555500
(1548439964.656634) can0 18DAF107#1039622610000800
(1548439964.705877) can0 18DA07F1#30FF015555555500
(1548439964.707421) can0 18DAF107#2160000000000000
(1548439964.707728) can0 18DAF107#2200000000000000
(1548439964.708041) can0 18DAF107#23003C0000000000
(1548439964.708279) can0 18DAF107#2400000000000000
(1548439964.708576) can0 18DAF107#2505000000000000
(1548439964.709095) can0 18DAF107#2600000000000000
(1548439964.709627) can0 18DAF107#2700000000000000
(1548439964.709913) can0 18DAF107#2800005555555555
(1548439964.768777) can0 18DA07F1#0322266055555500
(1548439964.770339) can0 18DAF107#1039622660000000
(1548439964.820242) can0 18DA07F1#30FF015555555500
(1548439964.821844) can0 18DAF107#2100073000000000
(1548439964.822133) can0 18DAF107#2200000000000000
(1548439964.822398) can0 18DAF107#2300000000000000
(1548439964.822671) can0 18DAF107#2400000000000000
(1548439964.822961) can0 18DAF107#2500000000000000
(1548439964.823464) can0 18DAF107#260000000000000E
(1548439964.823987) can0 18DAF107#27A1000000500000
(1548439964.824909) can0 18DAF107#2800005555555555
(1548439979.873400) can0 18DA01F1#0322202A55555500
(1548439979.876368) can0 18DAF101#10F662202A380F3F
(1548439979.924835) can0 18DA01F1#30F6015555555500
(1548439979.927536) can0 18DAF101#21FFFFFFFFFFFFE7
(1548439979.927825) can0 18DAF101#22FFFFFFFFF2B33F
(1548439979.928163) can0 18DAF101#23FFFFFFFFFFFFE0
(1548439979.928456) can0 18DAF101#2400000019925666
(1548439979.928717) can0 18DAF101#2550000000000001
(1548439979.929013) can0 18DAF101#260E0AA90A100000
(1548439979.929333) can0 18DAF101#2781000100036020
(1548439979.930085) can0 18DAF101#28580F201A340F3A
(1548439979.930360) can0 18DAF101#29120F1A242FD021
(1548439979.930659) can0 18DAF101#2AE4FBC24B72F928
(1548439979.930965) can0 18DAF101#2B243523B94E0D4D
(1548439979.931251) can0 18DAF101#2CBF00004D010000
(1548439979.931545) can0 18DAF101#2D356901200305AA
(1548439979.931838) can0 18DAF101#2E0096005AFF1C03
(1548439979.932134) can0 18DAF101#2F020000140C36BA
(1548439979.932441) can0 18DAF101#2038B83201F40F3A
(1548439979.932708) can0 18DAF101#210F491B24030300
(1548439979.933057) can0 18DAF101#22000000FFFFFFFF
(1548439979.933320) can0 18DAF101#231A4C11021F2C38
(1548439979.933615) can0 18DAF101#240E7F007F007F00
(1548439979.933996) can0 18DAF101#2500000100010027
(1548439979.934315) can0 18DAF101#2610000001F40000
(1548439979.934785) can0 18DAF101#27FF40F000FF0007
(1548439979.935096) can0 18DAF101#28EA09041FA400BF
(1548439979.935578) can0 18DAF101#2900BF009E009C1A
(1548439979.936252) can0 18DAF101#2A331A380F170E8A
(1548439979.936924) can0 18DAF101#2B4E164E194DD74D
(1548439979.937464) can0 18DAF101#2CF3244A244A23D4
(1548439979.937936) can0 18DAF101#2D23E600BF009C01
(1548439979.938385) can0 18DAF101#2E90008200000000
(1548439979.938888) can0 18DAF101#2F01000000000000
(1548439979.939440) can0 18DAF101#2000000000000000
(1548439979.941253) can0 18DAF101#2100000000000000
(1548439979.941768) can0 18DAF101#2200000000000000
(1548439979.942065) can0 18DAF101#2300005555555555
(1548439979.987859) can0 18DA07F1#0322261055555500
(1548439979.989396) can0 18DAF107#1039622610000800
(1548439980.039344) can0 18DA07F1#30FF015555555500
(1548439980.040891) can0 18DAF107#2160000000000000
(1548439980.041196) can0 18DAF107#2200000000000000
(1548439980.041712) can0 18DAF107#2300560000000000
(1548439980.041974) can0 18DAF107#2400000000000000
(1548439980.042319) can0 18DAF107#2505000000000000
(1548439980.042581) can0 18DAF107#2600000000000000
(1548439980.042847) can0 18DAF107#2700000000000000
(1548439980.043130) can0 18DAF107#2800005555555555
(1548439980.102326) can0 18DA07F1#0322266055555500
(1548439980.103881) can0 18DAF107#1039622660000000
(1548439980.154020) can0 18DA07F1#30FF015555555500
(1548439980.156293) can0 18DAF107#2100073000000000
(1548439980.156538) can0 18DAF107#2200000000000000
(1548439980.158215) can0 18DAF107#2300000000000000
(1548439980.158481) can0 18DAF107#2400000000000000
(1548439980.158773) can0 18DAF107#2500000000000000
(1548439980.159444) can0 18DAF107#260000000000000E
(1548439980.159970) can0 18DAF107#27A10000006F0000
(1548439980.160473) can0 18DAF107#2800005555555555
(1548439995.207361) can0 18DA01F1#0322202A55555500
(1548439995.208920) can0 18DAF101#10F662202A380F3F
(1548439995.258909) can0 18DA01F1#30F6015555555500
(1548439995.260446) can0 18DAF101#21FFFFFFFFFFFFE7
(1548439995.262503) can0 18DAF101#22FFFFFFFFF2B33F
(1548439995.262778) can0 18DAF101#23FFFFFFFFFFFFE0
(1548439995.263116) can0 18DAF101#240000001C495F70
(1548439995.263448) can0 18DAF101#25DC000000000001
(1548439995.263944) can0 18DAF101#260E0AB8032A0000
(1548439995.264238) can0 18DAF101#2781000100036020
(1548439995.264531) can0 18DAF101#285805B11A5805B0
(1548439995.264829) can0 18DAF101#29120F1A4611E421
(1548439995.265108) can0 18DAF101#2AD8FBBF4B48F8D7
(1548439995.265394) can0 18DAF101#2B240A238E4E724E
(1548439995.266152) can0 18DAF101#2C2700004D010000
(1548439995.266652) can0 18DAF101#2D356901200305AA
(1548439995.267120) can0 18DAF101#2E0096006EFF1C03
(1548439995.267848) can0 18DAF101#2F020000150C36E2
(1548439995.268130) can0 18DAF101#2038D63201F405B7
(1548439995.268426) can0 18DAF101#2105B0191D030300
(1548439995.268762) can0 18DAF101#22000000FFFFFFFF
(1548439995.269056) can0 18DAF101#231A7111021F2C38
(1548439995.269379) can0 18DAF101#24047F007F007F00
(1548439995.269694) can0 18DAF101#2500000100010027
(1548439995.270005) can0 18DAF101#2610000001F40000
(1548439995.270287) can0 18DAF101#27FF40F000FF0007
(1548439995.271047) can0 18DAF101#28E903681FA400BF
(1548439995.271315) can0 18DAF101#2900BF009F009D1A
(1548439995.271679) can0 18DAF101#2A571A5905B005AE
(1548439995.271922) can0 18DAF101#2B4E814E784E484E
(1548439995.272189) can0 18DAF101#2C56241F242023A9
(1548439995.272484) can0 18DAF101#2D23BD00BF009D01
(1548439995.273038) can0 18DAF101#2E90008200000000
(1548439995.273316) can0 18DAF101#2F01000000000000
(1548439995.273678) can0 18DAF101#2000000000000000
(1548439995.273948) can0 18DAF101#2100000000000000
(1548439995.274241) can0 18DAF101#2200000000000000
(1548439995.274519) can0 18DAF101#2300005555555555
(1548439995.321829) can0 18DA07F1#0322261055555500
(1548439995.323370) can0 18DAF107#1039622610000800
(1548439995.373305) can0 18DA07F1#30FF015555555500
(1548439995.374918) can0 18DAF107#2160000000000000
(1548439995.375199) can0 18DAF107#2200000000000000
(1548439995.375488) can0 18DAF107#23005F0000000000
(1548439995.375986) can0 18DAF107#2400000000000000
(1548439995.376299) can0 18DAF107#2505000000000000
(1548439995.380310) can0 18DAF107#2600000000000000
(1548439995.381012) can0 18DAF107#2700000000000000
(1548439995.381540) can0 18DAF107#2800005555555555
(1548439995.435962) can0 18DA07F1#0322266055555500
(1548439995.438846) can0 18DAF107#1039622660000000
(1548439995.487348) can0 18DA07F1#30FF015555555500
(1548439995.488873) can0 18DAF107#2100073000000000
(1548439995.489168) can0 18DAF107#2200000000000000
(1548439995.489499) can0 18DAF107#2300000000000000
(1548439995.489765) can0 18DAF107#2400000000000000
(1548439995.490040) can0 18DAF107#2500000000000000
(1548439995.490334) can0 18DAF107#260000000000000E
(1548439995.490818) can0 18DAF107#27A1000000980000
(1548439995.491348) can0 18DAF107#2800005555555555
(1548440010.541137) can0 18DA01F1#0322202A55555500
(1548440010.543316) can0 18DAF101#10F662202A380F3F
(1548440010.592732) can0 18DA01F1#30F6015555555500
(1548440010.594540) can0 18DAF101#21FFFFFFFFFFFFE7
(1548440010.594799) can0 18DAF101#22FFFFFFFFF2B33F
(1548440010.595111) can0 18DAF101#23FFFFFFFFFFFFE0
(1548440010.595399) can0 18DAF101#240000001C7B5F71
(1548440010.595694) can0 18DAF101#25DC000000000001
(1548440010.595988) can0 18DAF101#260F0AC803580000
(1548440010.596313) can0 18DAF101#2781000100035F20
(1548440010.596581) can0 18DAF101#2858062F1A5205EC
(1548440010.597132) can0 18DAF101#29120F1A42107221
(1548440010.597563) can0 18DAF101#2AD2FBBC4B3CF8A7
(1548440010.598099) can0 18DAF101#2B23F123754E644E
(1548440010.598368) can0 18DAF101#2C1F00004D010000
(1548440010.600024) can0 18DAF101#2D356901200405AA
(1548440010.600343) can0 18DAF101#2E00960082FF1C03
(1548440010.600880) can0 18DAF101#2F020000150C36EC
(1548440010.601247) can0 18DAF101#2038CC3201F30622
(1548440010.602707) can0 18DAF101#210628191D030300
(1548440010.603272) can0 18DAF101#22000000FFFFFFFF
(1548440010.603528) can0 18DAF101#231A6D11021F2C37
(1548440010.603824) can0 18DAF101#24FA7F007F007F00
(1548440010.604518) can0 18DAF101#2500000100010027
(1548440010.604822) can0 18DAF101#2610000001F40000
(1548440010.605099) can0 18DAF101#27FF40F000FF0007
(1548440010.605600) can0 18DAF101#28E903AE1FA400C0
(1548440010.605912) can0 18DAF101#2900BF009F009D1A
(1548440010.606220) can0 18DAF101#2A521A54064A062A
(1548440010.606475) can0 18DAF101#2B4E6F4E684E364E
(1548440010.607932) can0 18DAF101#2C48240624082390
(1548440010.608855) can0 18DAF101#2D23A500C0009D01
(1548440010.609400) can0 18DAF101#2E90008200000000
(1548440010.609699) can0 18DAF101#2F01000000000000
(1548440010.610022) can0 18DAF101#2000000000000000
(1548440010.610354) can0 18DAF101#2100000000000000
(1548440010.610648) can0 18DAF101#2200000000000000
(1548440010.610905) can0 18DAF101#2300005555555555
(1548440010.656524) can0 18DA07F1#0322261055555500
(1548440010.659660) can0 18DAF107#1039622610000800
(1548440010.707773) can0 18DA07F1#30FF015555555500
(1548440010.709322) can0 18DAF107#2160000000000000
(1548440010.709642) can0 18DAF107#2200000000000000
(1548440010.709904) can0 18DAF107#2300600000000000
(1548440010.710183) can0 18DAF107#2400000000000000
(1548440010.710476) can0 18DAF107#2505000000000000
(1548440010.710773) can0 18DAF107#2600000000000000
(1548440010.711098) can0 18DAF107#2700000000000000
(1548440010.711365) can0 18DAF107#2800005555555555
(1548440010.770602) can0 18DA07F1#0322266055555500
(1548440010.772219) can0 18DAF107#1039622660000000
(1548440010.822125) can0 18DA07F1#30FF015555555500
(1548440010.823702) can0 18DAF107#2100073000000000
(1548440010.824219) can0 18DAF107#2200000000000000
(1548440010.824470) can0 18DAF107#2300000000000000
(1548440010.824784) can0 18DAF107#2400000000000000
(1548440010.825104) can0 18DAF107#2500000000000000
(1548440010.825370) can0 18DAF107#260000000000000E
(1548440010.825668) can0 18DAF107#27A2000000C00000
(1548440010.825940) can0 18DAF107#2800005555555555
(1548440025.875107) can0 18DA01F1#0322202A55555500
(1548440025.876698) can0 18DAF101#10F662202A380F3F
(1548440025.926632) can0 18DA01F1#30F6015555555500
(1548440025.929883) can0 18DAF101#21FFFFFFFFFFFFE7
(1548440025.930381) can0 18DAF101#22FFFFFFFFF2B33F
(1548440025.930726) can0 18DAF101#23FFFFFFFFFFFFE0
(1548440025.931011) can0 18DAF101#240000001BEC5D6F
(1548440025.931376) can0 18DAF101#2548000000000001
(1548440025.931642) can0 18DAF101#260F0AD702D40000
(1548440025.931976) can0 18DAF101#2781000100035F20
(1548440025.932811) can0 18DAF101#285804461A6104A8
(1548440025.933092) can0 18DAF101#29120F1A500B5421
(1548440025.933380) can0 18DAF101#2ACFFBBC4B48F895
(1548440025.933668) can0 18DAF101#2B23E8236B4E8F4E
(1548440025.933964) can0 18DAF101#2C4800004D010000
(1548440025.934339) can0 18DAF101#2D356901200305AA
(1548440025.934656) can0 18DAF101#2E0096006EFF1C03
(1548440025.934926) can0 18DAF101#2F020000160B36E2
(1548440025.935317) can0 18DAF101#2038EA3201F404B6
(1548440025.935595) can0 18DAF101#2104A8191C030300
(1548440025.935942) can0 18DAF101#22000000FFFFFFFF
(1548440025.936263) can0 18DAF101#231A7C11021F2C38
(1548440025.936588) can0 18DAF101#240E7F007F007F00
(1548440025.936897) can0 18DAF101#2500000100010027
(1548440025.937207) can0 18DAF101#2610000001F40000
(1548440025.937521) can0 18DAF101#27FF40F000FF0007
(1548440025.938161) can0 18DAF101#28E702871FA400C0
(1548440025.938521) can0 18DAF101#2900BF009F009D1A
(1548440025.938918) can0 18DAF101#2A5F1A60041B03F6
(1548440025.939629) can0 18DAF101#2B4E924E924E5B4E
(1548440025.940126) can0 18DAF101#2C6D23FD23FE2387
(1548440025.940641) can0 18DAF101#2D239B00C0009D01
(1548440025.941184) can0 18DAF101#2E90008200000000
(1548440025.941629) can0 18DAF101#2F01000000000000
(1548440025.942106) can0 18DAF101#2000000000000000
(1548440025.943691) can0 18DAF101#2100000000000000
(1548440025.944701) can0 18DAF101#2200000000000000
(1548440025.945223) can0 18DAF101#2300005555555555
(1548440025.989548) can0 18DA07F1#0322261055555500
(1548440025.991122) can0 18DAF107#1039622610000800
(1548440026.040912) can0 18DA07F1#30FF015555555500
(1548440026.042703) can0 18DAF107#2160000000000000
(1548440026.043223) can0 18DAF107#2200000000000000
(1548440026.044316) can0 18DAF107#23005D0000000000
(1548440026.044570) can0 18DAF107#2400000000000000
(1548440026.044876) can0 18DAF107#2505000000000000
(1548440026.045157) can0 18DAF107#2600000000000000
(1548440026.045693) can0 18DAF107#2700000000000000
(1548440026.045979) can0 18DAF107#2800005555555555
(1548440026.103721) can0 18DA07F1#0322266055555500
(1548440026.105275) can0 18DAF107#1039622660000000
(1548440026.155310) can0 18DA07F1#30FF015555555500
(1548440026.156877) can0 18DAF107#2100073000000000
(1548440026.157156) can0 18DAF107#2200000000000000
(1548440026.157439) can0 18DAF107#2300000000000000
(1548440026.157796) can0 18DAF107#2400000000000000
(1548440026.158246) can0 18DAF107#2500000000000000
(1548440026.158926) can0 18DAF107#260000000000000E
(1548440026.159214) can0 18DAF107#27A2000000E90000
(1548440026.160868) can0 18DAF107#2800005555555555
(1548440041.208684) can0 18DA01F1#0322202A55555500
(1548440041.210976) can0 18DAF101#10F662202A380F3F
(1548440041.259991) can0 18DA01F1#30F6015555555500
(1548440041.261841) can0 18DAF101#21FFFFFFFFFFFFE7
(1548440041.262161) can0 18DAF101#22FFFFFFFFF2B33F
(1548440041.262639) can0 18DAF101#23FFFFFFFFFFFFE0
(1548440041.262936) can0 18DAF101#240000001C826071
(1548440041.263236) can0 18DAF101#25F0000000000001
(1548440041.265512) can0 18DAF101#260F0AE6026B0000
(1548440041.265806) can0 18DAF101#2781000100035F20
(1548440041.266122) can0 18DAF101#2858049A1A4E0479
(1548440041.266418) can0 18DAF101#29130F1A460FA021
(1548440041.266712) can0 18DAF101#2AC3FBB64B15F844
(1548440041.267015) can0 18DAF101#2B23BD23404E554E
(1548440041.267340) can0 18DAF101#2C0E00004D010000
(1548440041.267594) can0 18DAF101#2D356901200305AA
(1548440041.267921) can0 18DAF101#2E008C0064FF1C03
(1548440041.268174) can0 18DAF101#2F020000160B36E2
(1548440041.268468) can0 18DAF101#2038AE3201F404A1
(1548440041.269236) can0 18DAF101#210479191C030300
(1548440041.269557) can0 18DAF101#22000000FFFFFFFF
(1548440041.270002) can0 18DAF101#231A6911021F2C38
(1548440041.270739) can0 18DAF101#24047F007F007F00
(1548440041.271248) can0 18DAF101#2500000100010027
(1548440041.271778) can0 18DAF101#2610000001F40000
(1548440041.272066) can0 18DAF101#27FF40F000FF0007
(1548440041.272439) can0 18DAF101#28E702BB1FA400C0
(1548440041.272724) can0 18DAF101#2900C0009F009D1A
(1548440041.273730) can0 18DAF101#2A4C1A4E0496047E
(1548440041.274028) can0 18DAF101#2B4E5C4E564E284E
(1548440041.274427) can0 18DAF101#2C3023D223D4235C
(1548440041.274684) can0 18DAF101#2D237200C0009D01
(1548440041.275014) can0 18DAF101#2E90008200000000
(1548440041.275412) can0 18DAF101#2F01000000000000
(1548440041.275735) can0 18DAF101#2000000000000000
(1548440041.276039) can0 18DAF101#2100000000000000
(1548440041.276386) can0 18DAF101#2200000000000000
(1548440041.276672) can0 18DAF101#2300005555555555
(1548440041.322865) can0 18DA07F1#0322261055555500
(1548440041.325323) can0 18DAF107#1039622610000800
(1548440041.374411) can0 18DA07F1#30FF015555555500
(1548440041.375987) can0 18DAF107#2160000000000000
(1548440041.376213) can0 18DAF107#2200000000000000
(1548440041.376502) can0 18DAF107#2300600000000000
(1548440041.376796) can0 18DAF107#2400000000000000
(1548440041.377112) can0 18DAF107#2505000000000000
(1548440041.377367) can0 18DAF107#2600000000000000
(1548440041.377694) can0 18DAF107#2700000000000000
(1548440041.377971) can0 18DAF107#2800005555555555
(1548440041.437590) can0 18DA07F1#0322266055555500
(1548440041.439328) can0 18DAF107#1039622660000000
(1548440041.489143) can0 18DA07F1#30FF015555555500
(1548440041.490948) can0 18DAF107#2100073000000000
(1548440041.491212) can0 18DAF107#2200000000000000
(1548440041.491744) can0 18DAF107#2300000000000000
(1548440041.492054) can0 18DAF107#2400000000000000
(1548440041.492351) can0 18DAF107#2500000000000000
(1548440041.492587) can0 18DAF107#260000000000000E
(1548440041.492945) can0 18DAF107#27A3000001120000
(1548440041.493182) can0 18DAF107#2800005555555555
(1548440056.542367) can0 18DA01F1#0322202A55555500
(1548440056.543986) can0 18DAF101#10F662202A380F3F
(1548440056.593890) can0 18DA01F1#30F6015555555500
(1548440056.595558) can0 18DAF101#21FFFFFFFFFFFFE7
(1548440056.595817) can0 18DAF101#22FFFFFFFFF2B33F
(1548440056.596137) can0 18DAF101#23FFFFFFFFFFFFE0
(1548440056.596470) can0 18DAF101#240000001CC46072
(1548440056.596782) can0 18DAF101#25EC000000000001
(1548440056.597075) can0 18DAF101#26100AF6FE230000
(1548440056.597377) can0 18DAF101#2781000100035F20
(1548440056.597689) can0 18DAF101#2858FE371A6EFE22
(1548440056.597959) can0 18DAF101#29130F1A62FAC421
(1548440056.598311) can0 18DAF101#2ABDFBB34B12F823
(1548440056.598538) can0 18DAF101#2B23AC232F4EB34E
(1548440056.598832) can0 18DAF101#2C7000004DA80000
(1548440056.599126) can0 18DAF101#2D34C001200305AA
(1548440056.599449) can0 18DAF101#2E008C005AFF1C03
(1548440056.599975) can0 18DAF101#2F020000160B36CE
(1548440056.600296) can0 18DAF101#2038B83201F4FE20
(1548440056.600772) can0 18DAF101#21FE221817030300
(1548440056.603034) can0 18DAF101#22000000FFFFFFFF
(1548440056.603759) can0 18DAF101#231A8E11021F2C38
(1548440056.604095) can0 18DAF101#240E7F007F007F00
(1548440056.605029) can0 18DAF101#2500000100010027
(1548440056.605326) can0 18DAF101#2610000001F40000
(1548440056.606090) can0 18DAF101#27FF40F000FF0007
(1548440056.606511) can0 18DAF101#28E8FEF31FA400C0
(1548440056.606808) can0 18DAF101#2900C0009F009D1A
(1548440056.607076) can0 18DAF101#2A6C1A6CFE2BFE6C
(1548440056.607352) can0 18DAF101#2B4EB94EAF4E814E
(1548440056.607647) can0 18DAF101#2C8723C123C3234B
(1548440056.607944) can0 18DAF101#2D236100C0009D01
(1548440056.608296) can0 18DAF101#2E90008200000000
(1548440056.608605) can0 18DAF101#2F01000000000000
(1548440056.608884) can0 18DAF101#2000000000000000
(1548440056.609178) can0 18DAF101#2100000000000000
(1548440056.609537) can0 18DAF101#2200000000000000
(1548440056.610980) can0 18DAF101#2300005555555555
(1548440056.656949) can0 18DA07F1#0322261055555500
(1548440056.658506) can0 18DAF107#1039622610000800
(1548440056.708591) can0 18DA07F1#30FF015555555500
(1548440056.710347) can0 18DAF107#2160000000000000
(1548440056.711440) can0 18DAF107#2200000000000000
(1548440056.711693) can0 18DAF107#2300600000000000
(1548440056.712019) can0 18DAF107#2400000000000000
(1548440056.712530) can0 18DAF107#2505000000000000
(1548440056.713083) can0 18DAF107#2600000000000000
(1548440056.713330) can0 18DAF107#2700000000000000
(1548440056.713639) can0 18DAF107#2800005555555555
(1548440056.771776) can0 18DA07F1#0322266055555500
(1548440056.773442) can0 18DAF107#1039622660000000
(1548440056.823246) can0 18DA07F1#30FF015555555500
(1548440056.826227) can0 18DAF107#2100073000000000
(1548440056.826579) can0 18DAF107#2200000000000000
(1548440056.826840) can0 18DAF107#2300000000000000
(1548440056.827165) can0 18DAF107#2400000000000000
(1548440056.827438) can0 18DAF107#2500000000000000
(1548440056.827682) can0 18DAF107#260000000000000E
(1548440056.827975) can0 18DAF107#27A30000013B0000
(1548440056.828300) can0 18DAF107#2800005555555555
(1548440071.876716) can0 18DA01F1#0322202A55555500
(1548440071.878305) can0 18DAF101#10F662202A380F3F
(1548440071.928081) can0 18DA01F1#30F6015555555500
(1548440071.929713) can0 18DAF101#21FFFFFFFFFFFFE7
(1548440071.929925) can0 18DAF101#22FFFFFFFFF2B33F
(1548440071.930220) can0 18DAF101#23FFFFFFFFFFFFE0
(1548440071.930627) can0 18DAF101#240000001CD16173
(1548440071.932104) can0 18DAF101#2508000000000001
(1548440071.932759) can0 18DAF101#26100B0503860000
(1548440071.933258) can0 18DAF101#2781000100035E20
(1548440071.933594) can0 18DAF101#285806831A370671
(1548440071.933893) can0 18DAF101#29130F1A20136A21
(1548440071.934369) can0 18DAF101#2AB4FBB04AEEF7E7
(1548440071.934675) can0 18DAF101#2B238A230D4E134D
(1548440071.934994) can0 18DAF101#2CCA00004D010000
(1548440071.935733) can0 18DAF101#2D35BD01200305AA
(1548440071.936003) can0 18DAF101#2E008C006EFF1C03
(1548440071.936328) can0 18DAF101#2F020000160B36D8
(1548440071.936678) can0 18DAF101#2038B83201F30677
(1548440071.936945) can0 18DAF101#210671191D030300
(1548440071.937240) can0 18DAF101#22000000FFFFFFFF
(1548440071.937567) can0 18DAF101#231A5011021F2C38
(1548440071.937895) can0 18DAF101#24047F007F007F00
(1548440071.938188) can0 18DAF101#2500000100010027
(1548440071.938692) can0 18DAF101#2610000001F40000
(1548440071.938932) can0 18DAF101#27FF40F000FF0007
(1548440071.939200) can0 18DAF101#28E803E21FA400C0
(1548440071.939547) can0 18DAF101#2900C0009F009D1A
(1548440071.939982) can0 18DAF101#2A341A37067D066A
(1548440071.940249) can0 18DAF101#2B4E164E114DE44D
(1548440071.940569) can0 18DAF101#2CEE239F23A32329
(1548440071.941089) can0 18DAF101#2D234100C0009D01
(1548440071.941383) can0 18DAF101#2E90008200000000
(1548440071.941691) can0 18DAF101#2F01000000000000
(1548440071.942395) can0 18DAF101#2000000000000000
(1548440071.942915) can0 18DAF101#2100000000000000
(1548440071.943600) can0 18DAF101#2200000000000000
(1548440071.944346) can0 18DAF101#2300005555555555
(1548440071.990924) can0 18DA07F1#0322261055555500
(1548440071.992861) can0 18DAF107#1039622610000800
(1548440072.042375) can0 18DA07F1#30FF015555555500
(1548440072.043927) can0 18DAF107#2160000000000000
(1548440072.044694) can0 18DAF107#2200000000000000
(1548440072.044963) can0 18DAF107#2300610000000000
(1548440072.045530) can0 18DAF107#2400000000000000
(1548440072.046500) can0 18DAF107#2505000000000000
(1548440072.046978) can0 18DAF107#2600000000000000
(1548440072.047294) can0 18DAF107#2700000000000000
(1548440072.047553) can0 18DAF107#2800005555555555
(1548440072.105189) can0 18DA07F1#0322266055555500
(1548440072.107007) can0 18DAF107#1039622660000000
(1548440072.156603) can0 18DA07F1#30FF015555555500
(1548440072.158137) can0 18DAF107#2100073000000000
(1548440072.158404) can0 18DAF107#2200000000000000
(1548440072.158746) can0 18DAF107#2300000000000000
(1548440072.158990) can0 18DAF107#2400000000000000
(1548440072.159309) can0 18DAF107#2500000000000000
(1548440072.159586) can0 18DAF107#260000000000000E
(1548440072.160069) can0 18DAF107#27A3000001630000
(1548440072.160363) can0 18DAF107#2800005555555555
(1548440087.209641) can0 18DA01F1#0322202A55555500
(1548440087.211242) can0 18DAF101#10F662202A380F3F
(1548440087.261206) can0 18DA01F1#30F6015555555500
(1548440087.262822) can0 18DAF101#21FFFFFFFFFFFFE7
(1548440087.263506) can0 18DAF101#22FFFFFFFFF2B33F
(1548440087.264375) can0 18DAF101#23FFFFFFFFFFFFE0
(1548440087.264832) can0 18DAF101#240000001BA95D6E
(1548440087.265868) can0 18DAF101#2578000000000001
(1548440087.267424) can0 18DAF101#26110B1404360000
(1548440087.267951) can0 18DAF101#2781000100035E20
(1548440087.268371) can0 18DAF101#285807741A3F080B
(1548440087.269539) can0 18DAF101#29130F1A2E14FA21
(1548440087.270085) can0 18DAF101#2AB1FBB04B15F7D8
(1548440087.270327) can0 18DAF101#2B238323064E304D
(1548440087.270698) can0 18DAF101#2CE700004D010000
(1548440087.270992) can0 18DAF101#2D35BD01200205AA
(1548440087.271489) can0 18DAF101#2E008C0046FF1C03
(1548440087.272237) can0 18DAF101#2F020000160B36BA
(1548440087.272506) can0 18DAF101#2038AE3201F3080D
(1548440087.273225) can0 18DAF101#21080B1A1E030300
(1548440087.273780) can0 18DAF101#22000000FFFFFFFF
(1548440087.274065) can0 18DAF101#231A5E11021F2C37
(1548440087.274318) can0 18DAF101#24F07F007F007F00
(1548440087.274664) can0 18DAF101#2500000100010027
(1548440087.275050) can0 18DAF101#2610000001F40000
(1548440087.275291) can0 18DAF101#27FF40F000FF0007
(1548440087.275793) can0 18DAF101#28E6046F1FA400C1
(1548440087.276562) can0 18DAF101#2900C0009F009E1A
(1548440087.276831) can0 18DAF101#2A401A42077506FB
(1548440087.277107) can0 18DAF101#2B4E364E354DFF4E
(1548440087.277401) can0 18DAF101#2C0E2398239B2322
(1548440087.277699) can0 18DAF101#2D233900C1009E01
(1548440087.278065) can0 18DAF101#2E90008200000000
(1548440087.278332) can0 18DAF101#2F01000000000000
(1548440087.278664) can0 18DAF101#2000000000000000
(1548440087.279050) can0 18DAF101#2100000000000000
(1548440087.279504) can0 18DAF101#2200000000000000
(1548440087.279798) can0 18DAF101#2300005555555555
(1548440087.324221) can0 18DA07F1#0322261055555500
(1548440087.326495) can0 18DAF107#1039622610000800
(1548440087.375571) can0 18DA07F1#30FF015555555500
(1548440087.377144) can0 18DAF107#2160000000000000
(1548440087.377404) can0 18DAF107#2200000000000000
(1548440087.377708) can0 18DAF107#23005D0000000000
(1548440087.377969) can0 18DAF107#2400000000000000
(1548440087.378268) can0 18DAF107#2505000000000000
(1548440087.378562) can0 18DAF107#2600000000000000
(1548440087.378829) can0 18DAF107#2700000000000000
(1548440087.379123) can0 18DAF107#2800005555555555
(1548440087.438313) can0 18DA07F1#0322266055555500
(1548440087.439848) can0 18DAF107#1039622660000000
(1548440087.489942) can0 18DA07F1#30FF015555555500
(1548440087.491473) can0 18DAF107#2100073000000000
(1548440087.491795) can0 18DAF107#2200000000000000
(1548440087.493873) can0 18DAF107#2300000000000000
(1548440087.494149) can0 18DAF107#2400000000000000
(1548440087.494466) can0 18DAF107#2500000000000000
(1548440087.494707) can0 18DAF107#260000000000000E
(1548440087.495056) can0 18DAF107#27A40000018C0000
(1548440087.495301) can0 18DAF107#2800005555555555
(1548440102.543459) can0 18DA01F1#0322202A55555500
(1548440102.546215) can0 18DAF101#10F662202A380F3F
(1548440102.595234) can0 18DA01F1#30F6015555555500
(1548440102.597502) can0 18DAF101#21FFFFFFFFFFFFE7
(1548440102.597780) can0 18DAF101#22FFFFFFFFF2B33F
(1548440102.598095) can0 18DAF101#23FFFFFFFFFFFFE0
(1548440102.598428) can0 18DAF101#240000001C725F71
(1548440102.598905) can0 18DAF101#25B4000000000001
(1548440102.599230) can0 18DAF101#26110B2405800000
(1548440102.599501) can0 18DAF101#2781000100035E20
(1548440102.599769) can0 18DAF101#285809831A2009A9
(1548440102.600040) can0 18DAF101#29130F1A081A3621
(1548440102.600708) can0 18DAF101#2AA5FBAA4ADCF787
(1548440102.600980) can0 18DAF101#2B235822DA4DD74D
(1548440102.601302) can0 18DAF101#2C8A00004D010000
(1548440102.601684) can0 18DAF101#2D35BD01200205AA
(1548440102.601952) can0 18DAF101#2E008C005AFF1C03
(1548440102.602271) can0 18DAF101#2F020000160B36D8
(1548440102.602550) can0 18DAF101#2038B83201F3098D
(1548440102.603052) can0 18DAF101#2109A91A1F030300
(1548440102.603418) can0 18DAF101#22000000FFFFFFFF
(1548440102.603695) can0 18DAF101#231A3E11021F2C37
(1548440102.605344) can0 18DAF101#24FA7F007F007F00
(1548440102.606358) can0 18DAF101#2500000100010027
(1548440102.607561) can0 18DAF101#2610000001F40000
(1548440102.607829) can0 18DAF101#27FF40F000FF0007
(1548440102.608121) can0 18DAF101#28E705B01FA400C1
(1548440102.608415) can0 18DAF101#2900C0009F009E1A
(1548440102.608917) can0 18DAF101#2A1F1A2209940978
(1548440102.609258) can0 18DAF101#2B4DD94DD74D9F4D
(1548440102.609524) can0 18DAF101#2CB3236D237122F6
(1548440102.609792) can0 18DAF101#2D230F00C1009E01
(1548440102.610138) can0 18DAF101#2E90008200000000
(1548440102.610415) can0 18DAF101#2F01000000000000
(1548440102.610778) can0 18DAF101#2000000000000000
(1548440102.611095) can0 18DAF101#2100000000000000
(1548440102.611416) can0 18DAF101#2200000000000000
(1548440102.611709) can0 18DAF101#2300005555555555
(1548440102.658620) can0 18DA07F1#0322261055555500
(1548440102.660171) can0 18DAF107#1039622610000800
(1548440102.710086) can0 18DA07F1#30FF015555555500
(1548440102.711652) can0 18DAF107#2160000000000000
(1548440102.711928) can0 18DAF107#2200000000000000
(1548440102.712211) can0 18DAF107#23005F0000000000
(1548440102.712533) can0 18DAF107#2400000000000000
(1548440102.713022) can0 18DAF107#2505000000000000
(1548440102.713308) can0 18DAF107#2600000000000000
(1548440102.713622) can0 18DAF107#2700000000000000
(1548440102.714514) can0 18DAF107#2800005555555555
(1548440102.773092) can0 18DA07F1#0322266055555500
(1548440102.775217) can0 18DAF107#1039622660000000
(1548440102.824602) can0 18DA07F1#30FF015555555500
(1548440102.829617) can0 18DAF107#2100073000000000
(1548440102.829936) can0 18DAF107#2200000000000000
(1548440102.830202) can0 18DAF107#2300000000000000
(1548440102.830737) can0 18DAF107#2400000000000000
(1548440102.831030) can0 18DAF107#2500000000000000
(1548440102.831297) can0 18DAF107#260000000000000E
(1548440102.831612) can0 18DAF107#27A4000001B40000
(1548440102.831876) can0 18DAF107#2800005555555555
(1548440117.877928) can0 18DA01F1#0322202A55555500
(1548440117.879547) can0 18DAF101#10F662202A380F3F
(1548440117.929452) can0 18DA01F1#30F6015555555500
(1548440117.931034) can0 18DAF101#21FFFFFFFFFFFFE7
(1548440117.931284) can0 18DAF101#22FFFFFFFFF2B33F
(1548440117.931631) can0 18DAF101#23FFFFFFFFFFFFE0
(1548440117.931878) can0 18DAF101#240000001C395F71
(1548440117.932184) can0 18DAF101#2510000000000001
(1548440117.932477) can0 18DAF101#26110B33064B0000
(1548440117.932805) can0 18DAF101#2781000100035D20
(1548440117.933069) can0 18DAF101#28580A861A0F0A72
(1548440117.933358) can0 18DAF101#29130F1A02203021
(1548440117.933772) can0 18DAF101#2AA5FBA74AB8F73F
(1548440117.935425) can0 18DAF101#2B233122B34D9F4D
(1548440117.935880) can0 18DAF101#2C5600004D010000
(1548440117.936383) can0 18DAF101#2D35BD01200305AA
(1548440117.936772) can0 18DAF101#2E008C0064FF1C03
(1548440117.937067) can0 18DAF101#2F020000160B36D8
(1548440117.937360) can0 18DAF101#2038CC3201F40A78
(1548440117.938386) can0 18DAF101#210A721A20030300
(1548440117.938840) can0 18DAF101#22000000FFFFFFFF
(1548440117.939102) can0 18DAF101#231A2811021F2C37
(1548440117.939388) can0 18DAF101#24FA7F007F007F00
(1548440117.939772) can0 18DAF101#2500000100010027
(1548440117.940091) can0 18DAF101#2610000001F40000
(1548440117.940386) can0 18DAF101#27FF40F000FF0007
(1548440117.940786) can0 18DAF101#28E8064F1FA400C1
(1548440117.941067) can0 18DAF101#2900C0009F009E1A
(1548440117.941462) can0 18DAF101#2A0E1A110A9D0A78
(1548440117.941772) can0 18DAF101#2B4DA54DA84D6E4D
(1548440117.942040) can0 18DAF101#2C7A2346234C22CF
(1548440117.942334) can0 18DAF101#2D22E900C1009E01
(1548440117.942772) can0 18DAF101#2E90008200000000
(1548440117.943040) can0 18DAF101#2F01000000000000
(1548440117.943365) can0 18DAF101#2000000000000000
(1548440117.943638) can0 18DAF101#2100000000000000
(1548440117.944166) can0 18DAF101#2200000000000000
(1548440117.944434) can0 18DAF101#2300005555555555
(1548440117.992382) can0 18DA07F1#0322261055555500
(1548440117.994152) can0 18DAF107#1039622610000800
(1548440118.043815) can0 18DA07F1#30FF015555555500
(1548440118.047050) can0 18DAF107#2160000000000000
(1548440118.047342) can0 18DAF107#2200000000000000
(1548440118.047633) can0 18DAF107#23005F0000000000
(1548440118.048384) can0 18DAF107#2400000000000000
(1548440118.048930) can0 18DAF107#2505000000000000
(1548440118.049441) can0 18DAF107#2600000000000000
(1548440118.049923) can0 18DAF107#2700000000000000
(1548440118.050192) can0 18DAF107#2800005555555555
(1548440118.106545) can0 18DA07F1#0322266055555500
(1548440118.110231) can0 18DAF107#1039622660000000
(1548440118.158088) can0 18DA07F1#30FF015555555500
(1548440118.159623) can0 18DAF107#2100073000000000
(1548440118.160544) can0 18DAF107#2200000000000000
(1548440118.160819) can0 18DAF107#2300000000000000
(1548440118.161099) can0 18DAF107#2400000000000000
(1548440118.161366) can0 18DAF107#2500000000000000
(1548440118.161691) can0 18DAF107#260000000000000E
(1548440118.161968) can0 18DAF107#27A5000001DD0000
(1548440118.162250) can0 18DAF107#2800005555555555
(1548440133.211579) can0 18DA01F1#0322202A55555500
(1548440133.213169) can0 18DAF101#10F662202A380F3F
(1548440133.263041) can0 18DA01F1#30F6015555555500
(1548440133.264617) can0 18DAF101#21FFFFFFFFFFFFE7
(1548440133.265141) can0 18DAF101#22FFFFFFFFF2B33F
(1548440133.266047) can0 18DAF101#23FFFFFFFFFFFFE0
(1548440133.266500) can0 18DAF101#240000001C8A6072
(1548440133.267031) can0 18DAF101#2520000000000001
(1548440133.267760) can0 18DAF101#26120B42008B0000
(1548440133.268243) can0 18DAF101#2781000100035D20
(1548440133.270568) can0 18DAF101#285801C21A39019E
(1548440133.270995) can0 18DAF101#29130F1A32050021
(1548440133.271726) can0 18DAF101#2A9FFBA44AACF70C
(1548440133.272229) can0 18DAF101#2B231622974E184D
(1548440133.272565) can0 18DAF101#2CD700004D010000
(1548440133.272820) can0 18DAF101#2D35BD01200205AA
(1548440133.273120) can0 18DAF101#2E008C0050FF1C03
(1548440133.273419) can0 18DAF101#2F020000160B36E2
(1548440133.273786) can0 18DAF101#2038AE3201F401B5
(1548440133.274136) can0 18DAF101#21019E191A030300
(1548440133.274429) can0 18DAF101#22000000FFFFFFFF
(1548440133.275193) can0 18DAF101#231A5311021F2C38
(1548440133.275706) can0 18DAF101#24047F007F007F00
(1548440133.276176) can0 18DAF101#2500000100010027
(1548440133.276705) can0 18DAF101#2610000001F40000
(1548440133.277000) can0 18DAF101#27FF40F000FF0007
(1548440133.277507) can0 18DAF101#28E8010D1FA400C1
(1548440133.277827) can0 18DAF101#2900C1009F009E1A
(1548440133.278121) can0 18DAF101#2A381A3801B301DB
(1548440133.278387) can0 18DAF101#2B4E1E4E184DEB4D
(1548440133.279724) can0 18DAF101#2CF1232B233122B4
(1548440133.280045) can0 18DAF101#2D22CE00C1009E01
(1548440133.280362) can0 18DAF101#2E90008200000000
(1548440133.280671) can0 18DAF101#2F01000000000000
(1548440133.280977) can0 18DAF101#2000000000000000
(1548440133.281280) can0 18DAF101#2100000000000000
(1548440133.281589) can0 18DAF101#2200000000000000
(1548440133.281850) can0 18DAF101#2300005555555555
(1548440133.326180) can0 18DA07F1#0322261055555500
(1548440133.328410) can0 18DAF107#1039622610000800
(1548440133.377801) can0 18DA07F1#30FF015555555500
(1548440133.379369) can0 18DAF107#2160000000000000
(1548440133.379870) can0 18DAF107#2200000000000000
(1548440133.380187) can0 18DAF107#2300600000000000
(1548440133.380430) can0 18DAF107#2400000000000000
(1548440133.380737) can0 18DAF107#2505000000000000
(1548440133.381063) can0 18DAF107#2600000000000000
(1548440133.381340) can0 18DAF107#2700000000000000
(1548440133.381622) can0 18DAF107#2800005555555555
(1548440133.440659) can0 18DA07F1#0322266055555500
(1548440133.442162) can0 18DAF107#1039622660000000
(1548440133.492183) can0 18DA07F1#30FF015555555500
(1548440133.493724) can0 18DAF107#2100073000000000
(1548440133.494010) can0 18DAF107#2200000000000000
(1548440133.494303) can0 18DAF107#2300000000000000
(1548440133.494599) can0 18DAF107#2400000000000000
(1548440133.496653) can0 18DAF107#2500000000000000
(1548440133.496958) can0 18DAF107#260000000000000E
(1548440133.497249) can0 18DAF107#27A5000002060000
(1548440133.497503) can0 18DAF107#2800005555555555
(1548440148.545772) can0 18DA01F1#0322202A55555500
(1548440148.549128) can0 18DAF101#10F662202A380F3F
(1548440148.597278) can0 18DA01F1#30F6015555555500
(1548440148.599062) can0 18DAF101#21FFFFFFFFFFFFE7
(1548440148.599795) can0 18DAF101#22FFFFFFFFF2B33F
(1548440148.600149) can0 18DAF101#23FFFFFFFFFFFFE0
(1548440148.600390) can0 18DAF101#2400000020286C80
(1548440148.600940) can0 18DAF101#25E8000000000001
(1548440148.601225) can0 18DAF101#26120B5208970000
(1548440148.601519) can0 18DAF101#2781000100035D20
(1548440148.601795) can0 18DAF101#285810BC19EB113B
(1548440148.602065) can0 18DAF101#29130F19DC33FE21
(1548440148.602360) can0 18DAF101#2A96FBA14AAFF6A3
(1548440148.602651) can0 18DAF101#2B22FA227B4D394C
(1548440148.602946) can0 18DAF101#2CE300004D010000
(1548440148.603254) can0 18DAF101#2D361101200305AA
(1548440148.603544) can0 18DAF101#2E008C0064FF1C03
(1548440148.603839) can0 18DAF101#2F020000160B36C4
(1548440148.604119) can0 18DAF101#2038A43201F4113B
(1548440148.604462) can0 18DAF101#2111341B25030300
(1548440148.604821) can0 18DAF101#22000000FFFFFFFF
(1548440148.605104) can0 18DAF101#231A0711021F2C37
(1548440148.605462) can0 18DAF101#24DC7F007F007F00
(1548440148.606097) can0 18DAF101#2500000100010027
(1548440148.607778) can0 18DAF101#2610000001F40000
(1548440148.608248) can0 18DAF101#27FF40F000FF0007
(1548440148.608991) can0 18DAF101#28E70A151FA400C1
(1548440148.609298) can0 18DAF101#2900C100A0009E19
(1548440148.610235) can0 18DAF101#2AEB19EF10ED1060
(1548440148.610507) can0 18DAF101#2B4D3D4D474D024D
(1548440148.611260) can0 18DAF101#2C19231023162298
(1548440148.611559) can0 18DAF101#2D22B300C1009E01
(1548440148.611880) can0 18DAF101#2E90008201B801BD
(1548440148.612177) can0 18DAF101#2F01000000000000
(1548440148.612476) can0 18DAF101#2000000000000000
(1548440148.612875) can0 18DAF101#2100000000000000
(1548440148.613189) can0 18DAF101#2200000000000000
(1548440148.613469) can0 18DAF101#2300005555555555
(1548440148.660355) can0 18DA07F1#0322261055555500
(1548440148.661875) can0 18DAF107#1039622610000800
(1548440148.712529) can0 18DA07F1#30FF015555555500
(1548440148.714071) can0 18DAF107#2160000000000000
(1548440148.714362) can0 18DAF107#2200000000000000
(1548440148.714655) can0 18DAF107#23006C0000000000
(1548440148.714922) can0 18DAF107#2400000000000000
(1548440148.715216) can0 18DAF107#2505000000000000
(1548440148.715520) can0 18DAF107#2600000000000000
(1548440148.716023) can0 18DAF107#2700000000000000
(1548440148.716305) can0 18DAF107#2800005555555555
(1548440148.775644) can0 18DA07F1#0322266055555500
(1548440148.778179) can0 18DAF107#1039622660000000
(1548440148.826949) can0 18DA07F1#30FF015555555500
(1548440148.829276) can0 18DAF107#2100073000000000
(1548440148.829791) can0 18DAF107#2200000000000000
(1548440148.830326) can0 18DAF107#2300000000000000
(1548440148.830849) can0 18DAF107#2400000000000000
(1548440148.831349) can0 18DAF107#2500000000000000
(1548440148.831812) can0 18DAF107#260000000000000E
(1548440148.832343) can0 18DAF107#27A5000002310000
(1548440148.832847) can0 18DAF107#2800005555555555
(1548440163.880455) can0 18DA01F1#0322202A55555500
(1548440163.882035) can0 18DAF101#10F662202A380F3F
(1548440163.932152) can0 18DA01F1#30F6015555555500
(1548440163.933733) can0 18DAF101#21FFFFFFFFFFFFE7
(1548440163.933997) can0 18DAF101#22FFFFFFFFF2B33F
(1548440163.934305) can0 18DAF101#23FFFFFFFFFFFFE0
(1548440163.934584) can0 18DAF101#2400000021327085
(1548440163.934937) can0 18DAF101#2504000000000001
(1548440163.935231) can0 18DAF101#26130B6103420000
(1548440163.935496) can0 18DAF101#2781000100035C20
(1548440163.935852) can0 18DAF101#285807221A030717
(1548440163.936147) can0 18DAF101#29130F19F014A021
(1548440163.936449) can0 18DAF101#2A87FB8F4A61F56E
(1548440163.938139) can0 18DAF101#2B22C0223F4D7C4D
(1548440163.938602) can0 18DAF101#2C3000004D010000
(1548440163.939086) can0 18DAF101#2D366501200305AA
(1548440163.939380) can0 18DAF101#2E008C0064FF1C03
(1548440163.939674) can0 18DAF101#2F020000160B36EC
(1548440163.940014) can0 18DAF101#2038CC3201F30737
(1548440163.940797) can0 18DAF101#2107171A1E030300
(1548440163.941075) can0 18DAF101#22000000FFFFFFFF
(1548440163.941345) can0 18DAF101#231A2111021F2C38
(1548440163.941673) can0 18DAF101#24047F007F007F00
(1548440163.941989) can0 18DAF101#2500000100010027
(1548440163.942474) can0 18DAF101#2610000001F40000
(1548440163.942841) can0 18DAF101#27FF40F000FF0007
(1548440163.943242) can0 18DAF101#28E704481FA400C1
(1548440163.943535) can0 18DAF101#2900C100A0009E1A
(1548440163.943825) can0 18DAF101#2A021A04073E072A
(1548440163.944120) can0 18DAF101#2B4D824D854D4B4D
(1548440163.944388) can0 18DAF101#2C5922D522DE225C
(1548440163.944724) can0 18DAF101#2D227A00C1009E01
(1548440163.945039) can0 18DAF101#2E90008201D001CC
(1548440163.945306) can0 18DAF101#2F01000000000000
(1548440163.945636) can0 18DAF101#2000000000000000
(1548440163.946594) can0 18DAF101#2100000000000000
(1548440163.947127) can0 18DAF101#2200000000000000
(1548440163.947588) can0 18DAF101#2300005555555555
(1548440163.995118) can0 18DA07F1#0322261055555500
(1548440163.996658) can0 18DAF107#1039622610000800
(1548440164.046701) can0 18DA07F1#30FF015555555500
(1548440164.049098) can0 18DAF107#2160000000000000
(1548440164.049624) can0 18DAF107#2200000000000000
(1548440164.049951) can0 18DAF107#23006F0000000000
(1548440164.050443) can0 18DAF107#2400000000000000
(1548440164.050947) can0 18DAF107#2505000000000000
(1548440164.051426) can0 18DAF107#2600000000000000
(1548440164.051958) can0 18DAF107#2700000000000000
(1548440164.052711) can0 18DAF107#2800005555555555
(1548440164.109755) can0 18DA07F1#0322266055555500
(1548440164.112255) can0 18DAF107#1039622660000000
(1548440164.161209) can0 18DA07F1#30FF015555555500
(1548440164.162764) can0 18DAF107#2100073000000000
(1548440164.163057) can0 18DAF107#2200000000000000
(1548440164.163346) can0 18DAF107#2300000000000000
(1548440164.163634) can0 18DAF107#2400000000000000
(1548440164.163921) can0 18DAF107#2500000000000000
(1548440164.164210) can0 18DAF107#260000000000000E
(1548440164.164500) can0 18DAF107#27A6000002610000
(1548440164.164816) can0 18DAF107#2800005555555555
(1548440179.214545) can0 18DA01F1#0322202A55555500
(1548440179.216158) can0 18DAF101#10F662202A380F3F
(1548440179.266488) can0 18DA01F1#30F6015555555500
(1548440179.268439) can0 18DAF101#21FFFFFFFFFFFFE7
(1548440179.268730) can0 18DAF101#22FFFFFFFFF2B33F
(1548440179.269002) can0 18DAF101#23FFFFFFFFFFFFE0
(1548440179.269442) can0 18DAF101#24000000210C6F83
(1548440179.270022) can0 18DAF101#25FC000000000001
(1548440179.270524) can0 18DAF101#26130B7004090000
(1548440179.272318) can0 18DAF101#2781000100035B20
(1548440179.272785) can0 18DAF101#2858083819FA085C
(1548440179.273261) can0 18DAF101#29130F19F019A021
(1548440179.273768) can0 18DAF101#2A7BFB8C4A58F4C3
(1548440179.274311) can0 18DAF101#2B229D221C4D624D
(1548440179.274820) can0 18DAF101#2C1700004D010000
(1548440179.275537) can0 18DAF101#2D366501200205AA
(1548440179.275904) can0 18DAF101#2E008C0050FF1C03
(1548440179.276219) can0 18DAF101#2F020000160B36E2
(1548440179.276488) can0 18DAF101#2038CC3201F30878
(1548440179.276915) can0 18DAF101#21085C1A1F030300
(1548440179.277584) can0 18DAF101#22000000FFFFFFFF
(1548440179.278558) can0 18DAF101#231A1911021F2C37
(1548440179.278904) can0 18DAF101#24FA7F007F007F00
(1548440179.279376) can0 18DAF101#2500000100010027
(1548440179.279904) can0 18DAF101#2610000001F40000
(1548440179.280194) can0 18DAF101#27FF40F000FF0007
(1548440179.280463) can0 18DAF101#28E704F11FA400C2
(1548440179.280760) can0 18DAF101#2900C100A0009F19
(1548440179.281532) can0 18DAF101#2AF919FB08470840
(1548440179.281852) can0 18DAF101#2B4D654D654D304D
(1548440179.282138) can0 18DAF101#2C4022B322BC223A
(1548440179.282417) can0 18DAF101#2D225800C2009F01
(1548440179.282727) can0 18DAF101#2E90008201C101C1
(1548440179.283031) can0 18DAF101#2F01000000000000
(1548440179.283730) can0 18DAF101#2000000000000000
(1548440179.284030) can0 18DAF101#2100000000000000
(1548440179.284367) can0 18DAF101#2200000000000000
(1548440179.284648) can0 18DAF101#2300005555555555
(1548440179.329758) can0 18DA07F1#0322261055555500
(1548440179.332238) can0 18DAF107#1039622610000800
(1548440179.381315) can0 18DA07F1#30FF015555555500
(1548440179.382880) can0 18DAF107#2160000000000000
(1548440179.383159) can0 18DAF107#2200000000000000
(1548440179.383817) can0 18DAF107#23006F0000000000
(1548440179.384159) can0 18DAF107#2400000000000000
(1548440179.384428) can0 18DAF107#2505000000000000
(1548440179.384682) can0 18DAF107#2600000000000000
(1548440179.384996) can0 18DAF107#2700000000000000
(1548440179.385480) can0 18DAF107#2800005555555555
(1548440179.444184) can0 18DA07F1#0322266055555500
(1548440179.445726) can0 18DAF107#1039622660000000
(1548440179.495659) can0 18DA07F1#30FF015555555500
(1548440179.497234) can0 18DAF107#2100073000000000
(1548440179.497459) can0 18DAF107#2200000000000000
(1548440179.497789) can0 18DAF107#2300000000000000
(1548440179.499892) can0 18DAF107#2400000000000000
(1548440179.500166) can0 18DAF107#2500000000000000
(1548440179.500435) can0 18DAF107#260000000000000E
(1548440179.500754) can0 18DAF107#27A6000002900000
(1548440179.501243) can0 18DAF107#2800005555555555
(1548440194.549104) can0 18DA01F1#0322202A55555500
(1548440194.553140) can0 18DAF101#10F662202A380F3F
(1548440194.600773) can0 18DA01F1#30F6015555555500
(1548440194.602558) can0 18DAF101#21FFFFFFFFFFFFE7
(1548440194.602902) can0 18DAF101#22FFFFFFFFF2B33F
(1548440194.603202) can0 18DAF101#23FFFFFFFFFFFFE0
(1548440194.603503) can0 18DAF101#24000000212E6F84
(1548440194.603928) can0 18DAF101#2594000000000001
(1548440194.604272) can0 18DAF101#26140B8003C20000
(1548440194.604738) can0 18DAF101#2781000100035B20
(1548440194.605032) can0 18DAF101#285807B319F60797
(1548440194.605300) can0 18DAF101#29131019E016A821
(1548440194.605607) can0 18DAF101#2A72FB834A46F41B
(1548440194.605877) can0 18DAF101#2B227B21FA4D574D
(1548440194.606198) can0 18DAF101#2C0B00004D010000
(1548440194.606703) can0 18DAF101#2D366501200305AA
(1548440194.607025) can0 18DAF101#2E008C0064FF1C03
(1548440194.607296) can0 18DAF101#2F020000160B36E2
(1548440194.607603) can0 18DAF101#2038C23201F307A2
(1548440194.607897) can0 18DAF101#2107971A1E030300
(1548440194.608222) can0 18DAF101#22000000FFFFFFFF
(1548440194.608505) can0 18DAF101#231A0E11021F2C37
(1548440194.610219) can0 18DAF101#24FA7F007F007F00
(1548440194.610724) can0 18DAF101#2500000100010027
(1548440194.611484) can0 18DAF101#2610000001F40000
(1548440194.611783) can0 18DAF101#27FF40F000FF0007
(1548440194.612671) can0 18DAF101#28E804A21FA400C2
(1548440194.612992) can0 18DAF101#2900C200A0009F19
(1548440194.613288) can0 18DAF101#2AF519F707C207BB
(1548440194.613588) can0 18DAF101#2B4D5A4D5A4D254D
(1548440194.614070) can0 18DAF101#2C392291229B2217
(1548440194.614363) can0 18DAF101#2D223500C2009F01
(1548440194.614880) can0 18DAF101#2E90008201AD01AD
(1548440194.615202) can0 18DAF101#2F01000000000000
(1548440194.615512) can0 18DAF101#2000000000000000
(1548440194.615821) can0 18DAF101#2100000000000000
(1548440194.616145) can0 18DAF101#2200000000000000
(1548440194.616457) can0 18DAF101#2300005555555555
(1548440194.663814) can0 18DA07F1#0322261055555500
(1548440194.665467) can0 18DAF107#1039622610000800
(1548440194.715252) can0 18DA07F1#30FF015555555500
(1548440194.716964) can0 18DAF107#2160000000000000
(1548440194.717308) can0 18DAF107#2200000000000000
(1548440194.717639) can0 18DAF107#23006F0000000000
(1548440194.717934) can0 18DAF107#2400000000000000
(1548440194.718204) can0 18DAF107#2505000000000000
(1548440194.718509) can0 18DAF107#2600000000000000
(1548440194.719265) can0 18DAF107#2700000000000000
(1548440194.719542) can0 18DAF107#2800005555555555
(1548440194.778037) can0 18DA07F1#0322266055555500
(1548440194.781099) can0 18DAF107#1039622660000000
(1548440194.829663) can0 18DA07F1#30FF015555555500
(1548440194.832359) can0 18DAF107#2100073000000000
(1548440194.832875) can0 18DAF107#2200000000000000
(1548440194.833333) can0 18DAF107#2300000000000000
(1548440194.834077) can0 18DAF107#2400000000000000
(1548440194.834841) can0 18DAF107#2500000000000000
(1548440194.835320) can0 18DAF107#260000000000000E
(1548440194.835832) can0 18DAF107#27A7000002C00000
(1548440194.836104) can0 18DAF107#2800005555555555
(1548440209.882981) can0 18DA01F1#0322202A55555500
(1548440209.884704) can0 18DAF101#10F662202A380F3F
(1548440209.934600) can0 18DA01F1#30F6015555555500
(1548440209.936371) can0 18DAF101#21FFFFFFFFFFFFE7
(1548440209.936597) can0 18DAF101#22FFFFFFFFF2B33F
(1548440209.936990) can0 18DAF101#23FFFFFFFFFFFFE0
(1548440209.937265) can0 18DAF101#24000000210A6F84
(1548440209.937560) can0 18DAF101#2540000000000001
(1548440209.937976) can0 18DAF101#26140B8F04030000
(1548440209.938268) can0 18DAF101#2781000100035B20
(1548440209.938545) can0 18DAF101#2858082E19F00824
(1548440209.938905) can0 18DAF101#29131019EA190A21
(1548440209.939212) can0 18DAF101#2A69FB7D4A37F37F
(1548440209.939482) can0 18DAF101#2B225C21DA4D404C
(1548440209.941178) can0 18DAF101#2CF700004D010000
(1548440209.941630) can0 18DAF101#2D366501200305AA
(1548440209.942153) can0 18DAF101#2E008C0064FF1C03
(1548440209.942421) can0 18DAF101#2F020000160B36E2
(1548440209.943183) can0 18DAF101#2038CC3201F40822
(1548440209.943497) can0 18DAF101#2108241A1F030300
(1548440209.944020) can0 18DAF101#22000000FFFFFFFF
(1548440209.944314) can0 18DAF101#231A0B11021F2C38
(1548440209.944771) can0 18DAF101#24187F007F007F00
(1548440209.945053) can0 18DAF101#2500000100010027
(1548440209.945359) can0 18DAF101#2610000001F40000
(1548440209.946100) can0 18DAF101#27FF40F000FF0007
(1548440209.946629) can0 18DAF101#28E704EE1FA400C2
(1548440209.946931) can0 18DAF101#2900C200A0009F19
(1548440209.947225) can0 18DAF101#2AEF19F1084B082A
(1548440209.947664) can0 18DAF101#2B4D454D4A4D164D
(1548440209.947998) can0 18DAF101#2C1F2271227C21F7
(1548440209.948267) can0 18DAF101#2D221600C2009F01
(1548440209.948561) can0 18DAF101#2E90008201AF01AE
(1548440209.948905) can0 18DAF101#2F01000000000000
(1548440209.949212) can0 18DAF101#2000000000000000
(1548440209.949527) can0 18DAF101#2100000000000000
(1548440209.950270) can0 18DAF101#2200000000000000
(1548440209.950550) can0 18DAF101#2300005555555555
(1548440209.997547) can0 18DA07F1#0322261055555500
(1548440209.999097) can0 18DAF107#1039622610000800
(1548440210.048962) can0 18DA07F1#30FF015555555500
(1548440210.051915) can0 18DAF107#2160000000000000
(1548440210.052197) can0 18DAF107#2200000000000000
(1548440210.052464) can0 18DAF107#23006F0000000000
(1548440210.053004) can0 18DAF107#2400000000000000
(1548440210.053533) can0 18DAF107#2505000000000000
(1548440210.054030) can0 18DAF107#2600000000000000
(1548440210.054532) can0 18DAF107#2700000000000000
(1548440210.054823) can0 18DAF107#2800005555555555
(1548440210.111782) can0 18DA07F1#0322266055555500
(1548440210.114809) can0 18DAF107#1039622660000000
(1548440210.163073) can0 18DA07F1#30FF015555555500
(1548440210.164603) can0 18DAF107#2100073000000000
(1548440210.164918) can0 18DAF107#2200000000000000
(1548440210.165179) can0 18DAF107#2300000000000000
(1548440210.165532) can0 18DAF107#2400000000000000
(1548440210.165795) can0 18DAF107#2500000000000000
(1548440210.166301) can0 18DAF107#260000000000000E
(1548440210.166810) can0 18DAF107#27A7000002EF0000
(1548440210.167107) can0 18DAF107#2800005555555555
(1548440225.216325) can0 18DA01F1#0322202A55555500
(1548440225.218079) can0 18DAF101#10F662202A380F3F
(1548440225.267762) can0 18DA01F1#30F6015555555500
(1548440225.269308) can0 18DAF101#21FFFFFFFFFFFFE7
(1548440225.269729) can0 18DAF101#22FFFFFFFFF2B33F
(1548440225.270068) can0 18DAF101#23FFFFFFFFFFFFE0
(1548440225.270335) can0 18DAF101#2400000021126F84
(1548440225.271097) can0 18DAF101#2580000000000001
(1548440225.271366) can0 18DAF101#26150B9E03AD0000
(1548440225.271689) can0 18DAF101#2781000100035A20
(1548440225.271982) can0 18DAF101#2858078819ED07D3
(1548440225.272412) can0 18DAF101#29131019D2161221
(1548440225.273148) can0 18DAF101#2A60FB744A25F2DA
(1548440225.275494) can0 18DAF101#2B223921B74D3A4C
(1548440225.276079) can0 18DAF101#2CF000004D010000
(1548440225.276554) can0 18DAF101#2D366501200205AA
(1548440225.277433) can0 18DAF101#2E008C0050FF1C03
(1548440225.277975) can0 18DAF101#2F020000160B36E2
(1548440225.278287) can0 18DAF101#2038B83201F407E2
(1548440225.278581) can0 18DAF101#2107D31A1E030300
(1548440225.278979) can0 18DAF101#22000000FFFFFFFF
(1548440225.279476) can0 18DAF101#231A0711021F2C38
(1548440225.279770) can0 18DAF101#24047F007F007F00
(1548440225.280077) can0 18DAF101#2500000100010027
(1548440225.280357) can0 18DAF101#2610000001F40000
(1548440225.281353) can0 18DAF101#27FF40F000FF0007
(1548440225.281655) can0 18DAF101#28E8048A1FA400C2
(1548440225.281976) can0 18DAF101#2900C200A0009F19
(1548440225.282431) can0 18DAF101#2AEB19ED078B0791
(1548440225.282888) can0 18DAF101#2B4D3A4D3C4D064D
(1548440225.283186) can0 18DAF101#2C17224F225B21D4
(1548440225.283950) can0 18DAF101#2D21F400C2009F01
(1548440225.284238) can0 18DAF101#2E900082019E0199
(1548440225.284532) can0 18DAF101#2F01000000000000
(1548440225.284970) can0 18DAF101#2000000000000000
(1548440225.285319) can0 18DAF101#2100000000000000
(1548440225.285589) can0 18DAF101#2200000000000000
(1548440225.285934) can0 18DAF101#2300005555555555
(1548440225.330863) can0 18DA07F1#0322261055555500
(1548440225.333300) can0 18DAF107#1039622610000800
(1548440225.382183) can0 18DA07F1#30FF015555555500
(1548440225.384196) can0 18DAF107#2160000000000000
(1548440225.384483) can0 18DAF107#2200000000000000
(1548440225.384773) can0 18DAF107#23006F0000000000
(1548440225.385421) can0 18DAF107#2400000000000000
(1548440225.385729) can0 18DAF107#2505000000000000
(1548440225.386081) can0 18DAF107#2600000000000000
(1548440225.386367) can0 18DAF107#2700000000000000
(1548440225.386817) can0 18DAF107#2800005555555555
(1548440225.444854) can0 18DA07F1#0322266055555500
(1548440225.446440) can0 18DAF107#1039622660000000
(1548440225.496404) can0 18DA07F1#30FF015555555500
(1548440225.497963) can0 18DAF107#2100073000000000
(1548440225.498261) can0 18DAF107#2200000000000000
(1548440225.498556) can0 18DAF107#2300000000000000
(1548440225.498827) can0 18DAF107#2400000000000000
(1548440225.499133) can0 18DAF107#2500000000000000
(1548440225.499426) can0 18DAF107#260000000000000E
(1548440225.499714) can0 18DAF107#27A80000031F0000
(1548440225.499967) can0 18DAF107#2800005555555555
(1548440240.549694) can0 18DA01F1#0322202A55555500
(1548440240.551455) can0 18DAF101#10F662202A380F3F
(1548440240.601242) can0 18DA01F1#30F6015555555500
(1548440240.602790) can0 18DAF101#21FFFFFFFFFFFFE7
(1548440240.603093) can0 18DAF101#22FFFFFFFFF2B33F
(1548440240.603564) can0 18DAF101#23FFFFFFFFFFFFE0
(1548440240.604028) can0 18DAF101#2400000020E96E83
(1548440240.604849) can0 18DAF101#25A0000000000001
(1548440240.605118) can0 18DAF101#26150BAE03230000
(1548440240.605420) can0 18DAF101#2781000100035A20
(1548440240.605691) can0 18DAF101#285806B719EC06ED
(1548440240.605959) can0 18DAF101#29131019E6157221
(1548440240.606254) can0 18DAF101#2A57FB6E4A13F24A
(1548440240.606554) can0 18DAF101#2B221B21984D394C
(1548440240.607083) can0 18DAF101#2CE900004D010000
(1548440240.607364) can0 18DAF101#2D366501200205AA
(1548440240.607656) can0 18DAF101#2E008C0046FF1C03
(1548440240.607964) can0 18DAF101#2F020000160B36C4
(1548440240.608244) can0 18DAF101#2038A43101F406E2
(1548440240.608763) can0 18DAF101#2106ED1A1E030300
(1548440240.609091) can0 18DAF101#22000000FFFFFFFF
(1548440240.609366) can0 18DAF101#231A0311021F2C37
(1548440240.609659) can0 18DAF101#24E67F007F007F00
(1548440240.609955) can0 18DAF101#2500000100010027
(1548440240.610273) can0 18DAF101#2610000001F40000
(1548440240.610579) can0 18DAF101#27FF40F000FF0007
(1548440240.610904) can0 18DAF101#28E7040C1FA400C3
(1548440240.611183) can0 18DAF101#2900C200A1009F19
(1548440240.612867) can0 18DAF101#2AEA19EC06BE06C8
(1548440240.613534) can0 18DAF101#2B4D394D394D064D
(1548440240.614072) can0 18DAF101#2C162231223E21B5
(1548440240.615022) can0 18DAF101#2D21D500C3009F01
(1548440240.615393) can0 18DAF101#2E90008200000000
(1548440240.615634) can0 18DAF101#2F01000000000000
(1548440240.615918) can0 18DAF101#2000000000000000
(1548440240.616487) can0 18DAF101#2100000000000000
(1548440240.616780) can0 18DAF101#2200000000000000
(1548440240.617052) can0 18DAF101#2300005555555555
(1548440240.663741) can0 18DA07F1#0322261055555500
(1548440240.665302) can0 18DAF107#1039622610000800
(1548440240.715153) can0 18DA07F1#30FF015555555500
(1548440240.716820) can0 18DAF107#2160000000000000
(1548440240.717073) can0 18DAF107#2200000000000000
(1548440240.717366) can0 18DAF107#23006E0000000000
(1548440240.717694) can0 18DAF107#2400000000000000
(1548440240.717962) can0 18DAF107#2505000000000000
(1548440240.718256) can0 18DAF107#2600000000000000
(1548440240.718788) can0 18DAF107#2700000000000000
(1548440240.719040) can0 18DAF107#2800005555555555
(1548440240.778537) can0 18DA07F1#0322266055555500
(1548440240.780096) can0 18DAF107#1039622660000000
(1548440240.829984) can0 18DA07F1#30FF015555555500
(1548440240.832473) can0 18DAF107#2100073000000000
(1548440240.832765) can0 18DAF107#2200000000000000
(1548440240.836268) can0 18DAF107#2300000000000000
(1548440240.836793) can0 18DAF107#2400000000000000
(1548440240.837369) can0 18DAF107#2500000000000000
(1548440240.837827) can0 18DAF107#260000000000000E
(1548440240.838402) can0 18DAF107#27A80000034E0000
(1548440240.838852) can0 18DAF107#2800005555555555
(1548440255.883158) can0 18DA01F1#0322202A55555500
(1548440255.884816) can0 18DAF101#10F662202A380F3F
(1548440255.934793) can0 18DA01F1#30F6015555555500
(1548440255.936348) can0 18DAF101#21FFFFFFFFFFFFE7
(1548440255.936846) can0 18DAF101#22FFFFFFFFF2B33F
(1548440255.937182) can0 18DAF101#23FFFFFFFFFFFFE0
(1548440255.937442) can0 18DAF101#24000000217F7186
(1548440255.937785) can0 18DAF101#2514000000000001
(1548440255.938049) can0 18DAF101#26160BBD04270000
(1548440255.938342) can0 18DAF101#2781000100035A20
(1548440255.938658) can0 18DAF101#2858092619D2093E
(1548440255.938925) can0 18DAF101#29131019B619DC21
(1548440255.939218) can0 18DAF101#2A4EFB6549EFF1A2
(1548440255.939489) can0 18DAF101#2B21F921744CEB4C
(1548440255.940034) can0 18DAF101#2CA200004C590000
(1548440255.940305) can0 18DAF101#2D376001200205AA
(1548440255.940657) can0 18DAF101#2E008C0046FF1C03
(1548440255.940926) can0 18DAF101#2F020000160B36D8
(1548440255.941221) can0 18DAF101#2038AE3201F40938
(1548440255.941741) can0 18DAF101#21093E1A1F030300
(1548440255.942312) can0 18DAF101#22000000FFFFFFFF
(1548440255.944029) can0 18DAF101#2319EA11021F2C37
(1548440255.944458) can0 18DAF101#24E67F007F007F00
(1548440255.944963) can0 18DAF101#2500000100010027
(1548440255.945729) can0 18DAF101#2610000001F40000
(1548440255.946154) can0 18DAF101#27FF40F000FF0007
(1548440255.946450) can0 18DAF101#28E605891FA400C3
(1548440255.946754) can0 18DAF101#2900C200A100A019
(1548440255.947232) can0 18DAF101#2AD119D30943094D
(1548440255.947530) can0 18DAF101#2B4CEC4CEC4CBA4C
(1548440255.947921) can0 18DAF101#2CCE220F221D2192
(1548440255.948216) can0 18DAF101#2D21B200C300A001
(1548440255.948687) can0 18DAF101#2E90008200000000
(1548440255.948983) can0 18DAF101#2F01000000000000
(1548440255.949315) can0 18DAF101#2000000000000000
(1548440255.949844) can0 18DAF101#2100000000000000
(1548440255.950138) can0 18DAF101#2200000000000000
(1548440255.950409) can0 18DAF101#2300005555555555
(1548440255.997851) can0 18DA07F1#0322261055555500
(1548440256.000294) can0 18DAF107#1039622610000800
(1548440256.049326) can0 18DA07F1#30FF015555555500
(1548440256.050881) can0 18DAF107#2160000000000000
(1548440256.051173) can0 18DAF107#2200000000000000
(1548440256.051451) can0 18DAF107#2300710000000000
(1548440256.051731) can0 18DAF107#2400000000000000
(1548440256.052026) can0 18DAF107#2505000000000000
(1548440256.053705) can0 18DAF107#2600000000000000
(1548440256.054674) can0 18DAF107#2700000000000000
(1548440256.054929) can0 18DAF107#2800005555555555
(1548440256.112326) can0 18DA07F1#0322266055555500
(1548440256.114036) can0 18DAF107#1039622660000000
(1548440256.163944) can0 18DA07F1#30FF015555555500
(1548440256.165780) can0 18DAF107#2100073000000000
(1548440256.166281) can0 18DAF107#2200000000000000
(1548440256.166601) can0 18DAF107#2300000000000000
(1548440256.167131) can0 18DAF107#2400000000000000
(1548440256.167412) can0 18DAF107#2500000000000000
(1548440256.167694) can0 18DAF107#260000000000000E
(1548440256.167962) can0 18DAF107#27A90000037C0000
(1548440256.168244) can0 18DAF107#2800005555555555
(1548440271.217280) can0 18DA01F1#0322202A55555500
(1548440271.219011) can0 18DAF101#10F662202A380F3F
(1548440271.269004) can0 18DA01F1#30F6015555555500
(1548440271.270573) can0 18DAF101#21FFFFFFFFFFFFE7
(1548440271.271297) can0 18DAF101#22FFFFFFFFF2B33F
(1548440271.271617) can0 18DAF101#23FFFFFFFFFFFFE0
(1548440271.271981) can0 18DAF101#2400000020EA6F83
(1548440271.272286) can0 18DAF101#25A4000000000001
(1548440271.272550) can0 18DAF101#26160BCC05040000
(1548440271.273668) can0 18DAF101#2781000100035920
(1548440271.273961) can0 18DAF101#28580A1019CE0A43
(1548440271.274255) can0 18DAF101#29131019C01D7421
(1548440271.274523) can0 18DAF101#2A42FB5F49EFF103
(1548440271.274857) can0 18DAF101#2B21D921534CE24C
(1548440271.275163) can0 18DAF101#2C9200004C590000
(1548440271.275639) can0 18DAF101#2D376001200205AA
(1548440271.277724) can0 18DAF101#2E008C0050FF1C03
(1548440271.278252) can0 18DAF101#2F020000160B36CE
(1548440271.278729) can0 18DAF101#2038C23201F40A4E
(1548440271.279174) can0 18DAF101#210A431A20030300
(1548440271.279729) can0 18DAF101#22000000FFFFFFFF
(1548440271.280200) can0 18DAF101#2319E611021F2C37
(1548440271.280494) can0 18DAF101#24FA7F007F007F00
(1548440271.281070) can0 18DAF101#2500000100010027
(1548440271.281351) can0 18DAF101#2610000001F40000
(1548440271.281648) can0 18DAF101#27FF40F000FF0007
(1548440271.281947) can0 18DAF101#28E706181FA400C3
(1548440271.282241) can0 18DAF101#2900C200A100A019
(1548440271.282509) can0 18DAF101#2ACD19CF0A290A09
(1548440271.283029) can0 18DAF101#2B4CE04CE34CAB4C
(1548440271.284003) can0 18DAF101#2CC221EE21FD2170
(1548440271.284298) can0 18DAF101#2D219100C300A001
(1548440271.284595) can0 18DAF101#2E90008201CC01CC
(1548440271.284947) can0 18DAF101#2F01000000000000
(1548440271.285397) can0 18DAF101#2000000000000000
(1548440271.286413) can0 18DAF101#2100000000000000
(1548440271.286961) can0 18DAF101#2200000000000000
(1548440271.287229) can0 18DAF101#2300005555555555
(1548440271.332004) can0 18DA07F1#0322261055555500
(1548440271.335703) can0 18DAF107#1039622610000800
(1548440271.383478) can0 18DA07F1#30FF015555555500
(1548440271.385807) can0 18DAF107#2160000000000000
(1548440271.386324) can0 18DAF107#2200000000000000
(1548440271.387403) can0 18DAF107#23006F0000000000
(1548440271.387722) can0 18DAF107#2400000000000000
(1548440271.388013) can0 18DAF107#2505000000000000
(1548440271.388308) can0 18DAF107#2600000000000000
(1548440271.388589) can0 18DAF107#2700000000000000
(1548440271.388854) can0 18DAF107#2800005555555555
(1548440271.446379) can0 18DA07F1#0322266055555500
(1548440271.447999) can0 18DAF107#1039622660000000
(1548440271.497994) can0 18DA07F1#30FF015555555500
(1548440271.499536) can0 18DAF107#2100073000000000
(1548440271.499829) can0 18DAF107#2200000000000000
(1548440271.500144) can0 18DAF107#2300000000000000
(1548440271.500414) can0 18DAF107#2400000000000000
(1548440271.500984) can0 18DAF107#2500000000000000
(1548440271.501444) can0 18DAF107#260000000000000E
(1548440271.501757) can0 18DAF107#27A9000003AC0000
(1548440271.502040) can0 18DAF107#2800005555555555
(1548440286.551404) can0 18DA01F1#0322202A55555500
(1548440286.552995) can0 18DAF101#10F662202A380F3F
(1548440286.603013) can0 18DA01F1#30F6015555555500
(1548440286.604774) can0 18DAF101#21FFFFFFFFFFFFE7
(1548440286.605081) can0 18DAF101#22FFFFFFFFF2B33F
(1548440286.605365) can0 18DAF101#23FFFFFFFFFFFFE0
(1548440286.605692) can0 18DAF101#2400000021276F84
(1548440286.605970) can0 18DAF101#2560000000000001
(1548440286.606478) can0 18DAF101#26170BDC03CF0000
(1548440286.607664) can0 18DAF101#2781000100035920
(1548440286.607932) can0 18DAF101#285807D419D007F1
(1548440286.608244) can0 18DAF101#29131019B6164E21
(1548440286.608512) can0 18DAF101#2A39FB5649D1F049
(1548440286.608852) can0 18DAF101#2B21B4212C4CE54C
(1548440286.609148) can0 18DAF101#2C9900004C590000
(1548440286.609605) can0 18DAF101#2D376001200205AA
(1548440286.609898) can0 18DAF101#2E008C0050FF1C03
(1548440286.610233) can0 18DAF101#2F020000160B36D8
(1548440286.610501) can0 18DAF101#2038C23201F407E2
(1548440286.610899) can0 18DAF101#2107F11A1E030300
(1548440286.611230) can0 18DAF101#22000000FFFFFFFF
